;$FILEVERSION=1.1
;$STARTTIME=45772.6120706134
;
;   Start time: 4/25/2025 14:41:22.901.0
;   Generated by PCAN-View v4.3.0.596
;
;   Message Number
;   |         Time Offset (ms)
;   |         |        Type
;   |         |        |        ID (hex)
;   |         |        |        |     Data Length
;   |         |        |        |     |   Data Bytes (hex) ...
;   |         |        |        |     |   |
;---+--   ----+----  --+--  ----+---  +  -+ -- -- -- -- -- -- --
     1)      5258.9  Rx         07B9  8  01 3E 00 00 00 00 00 00 \\ Teser Present 
     2)      5259.8  Rx         0729  8  02 7E 00 00 00 00 00 00 \\ positive response 
     3)      5361.6  Rx         07B9  8  03 22 F1 81 00 00 00 00 \\Read Application Software information
     4)      5362.4  Rx         0729  8  10 15 62 F1 81 21 4B 45  \\ Positive reponse
     5)      5380.0  Rx         07B9  8  30 00 00 00 00 00 00 00 
     6)      5380.8  Rx         0729  8  21 16 37 60 19 02 20 3A 
     7)      5381.0  Rx         0729  8  22 E2 01 00 00 0A 25 04 
     8)      5381.2  Rx         0729  8  23 02 55 55 55 55 55 55 
     9)      5475.3  Rx         07B9  8  03 22 F1 93 00 00 00 00 \\Hardware Version:
    10)      5476.1  Rx         0729  8  10 15 62 F1 93 4B 45 16 \\ Positive reponse
    11)      5489.4  Rx         07B9  8  30 00 00 00 00 00 00 00 
    12)      5490.2  Rx         0729  8  21 14 00 E2 06 06 00 B1 
    13)      5490.5  Rx         0729  8  22 00 00 56 58 08 00 00 
    14)      5490.7  Rx         0729  8  23 00 55 55 55 55 55 55 
    15)      5576.8  Rx         07B9  8  03 22 F1 85 00 00 00 00 Bootloader Software Version:
    16)      5577.7  Rx         0729  8  10 15 62 F1 85 21 4B 45 \\Positive reponse
    17)      5599.6  Rx         07B9  8  30 00 00 00 00 00 00 00 
    18)      5600.4  Rx         0729  8  21 16 37 60 19 02 20 3B 
    19)      5600.7  Rx         0729  8  22 E2 01 00 00 0A 25 04 
    20)      5600.9  Rx         0729  8  23 02 55 55 55 55 55 55 
    21)      5679.5  Rx         07B9  8  02 10 03 00 00 00 00 00 \\ Diagnostic Session Control [Extended: $10 $03]
    22)      5680.4  Rx         0729  8  02 50 03 00 00 00 00 00 \\ positive response
    23)      5780.6  Rx         07B9  8  04 31 01 02 01 00 00 00 \\Routine Control [Check Precondition: $31 01 02 01]
    24)      5781.4  Rx         0729  8  06 71 01 02 01 00 00 00 \\positive response
    25)      5882.2  Rx         07B9  8  02 10 03 00 00 00 00 00 \\10 Diagnostic Session Control [Extended: $10 $03]
    26)      5883.0  Rx         0729  8  02 50 03 00 00 00 00 00 \\positive response
    27)      5982.7  Rx         07B9  8  02 85 02 00 00 00 00 00 \\$85 Control DTC Setting [Disable the DTCs: $85 $82/$02]
    28)      5983.5  Rx         0729  8  02 C5 02 00 00 00 00 00 \\positive response
    29)      6085.7  Rx         07B9  8  03 28 01 03 00 00 00 00 \\$28 Communication Control [Disable: $28 $81/$01 $03]
    30)      6086.5  Rx         0729  8  03 68 01 03 00 00 00 00 
    31)      6188.9  Rx         07B9  8  02 3E 80 00 00 00 00 00\\ $3E $80 Tester Present
    32)      6189.0  Rx         07B9  8  02 10 02 00 00 00 00 00 \\$10 Diagnostic Session Control [Programming: $10 $02]
    33)      6190.0  Rx         0729  8  02 50 02 00 00 00 00 00 
    34)      6539.0  Rx         07B9  8  02 27 01 00 00 00 00 00 \\$27 Security Access [Seed: $27 $01,
    35)      6539.9  Rx         0729  8  10 0A 67 01 E1 8E C3 D1 \\positive response
    36)      6566.3  Rx         07B9  8  30 00 00 00 00 00 00 00 
    37)      6567.1  Rx         0729  8  21 CD 28 04 A4 55 55 55 
    38)      6711.2  Rx         07B9  8  10 0A 27 02 F2 FF 2C 41 \\ $27 Security Access [Seed:Key: $27 $02]
    39)      6712.1  Rx         0729  8  30 00 00 00 00 00 00 00 
    40)      6735.6  Rx         07B9  8  21 60 08 D2 38 00 00 00 
    41)      6737.2  Rx         0729  8  02 67 02 00 00 00 00 00 
    42)      6814.6  Rx         07B9  8  05 2E F1 84 00 05 00 00\\$2E $F1 $84 Write Fingerprint \\R&D SW CoC UDS Programmer
    43)      7056.4  Rx         0729  8  03 6E F1 84 00 00 00 00 
    44)      7117.6  Rx         07B9  8  04 31 01 FF 00 00 00 00\\$31 Routine Control: Erase memory [$31 $01 $FF $00] 
    45)      8123.2  Rx         07B9  8  02 3E 80 00 00 00 00 00 \\$3E $80 Tester Present
    46)      8866.2  Rx         0729  8  05 71 01 FF 00 01 00 00 
    47)      8931.4  Rx         07B9  8  10 0B 34 00 44 00 01 00 \\$34 Request Download
    48)      8932.2  Rx         0729  8  30 00 00 00 00 00 00 00 
    49)      8949.9  Rx         07B9  8  21 00 00 03 EA B8 00 00 
    50)      8950.8  Rx         0729  8  04 74 00 02 00 00 00 00 \\ positive response
    51)      9038.1  Rx         07B9  8  12 02 36 01 01 5A 00 00 \\Transfer Data
    52)      9038.9  Rx         0729  8  30 00 00 00 00 00 00 00 
    53)      9054.0  Rx         07B9  8  21 00 01 00 08 E9 04 E9 
    54)      9054.1  Rx         07B9  8  22 59 78 00 01 34 7C 00 
    55)      9054.2  Rx         07B9  8  23 02 78 7C 21 0A 78 7C 
    56)      9054.3  Rx         07B9  8  24 42 12 78 7C 63 1A 78 
    57)      9054.4  Rx         07B9  8  25 7C 84 22 78 7C A5 2A 
    58)      9054.4  Rx         07B9  8  26 78 7C C6 32 78 7C E7 
    59)      9054.5  Rx         07B9  8  27 3A 78 7D 08 42 78 7D 
    60)      9054.6  Rx         07B9  8  28 29 4A 78 7D 4A 52 78 
    61)      9054.6  Rx         07B9  8  29 7D 6B 5A 78 7D 8C 62 
    62)      9054.7  Rx         07B9  8  2A 78 7D AD 6A 78 7D CE 
    63)      9054.8  Rx         07B9  8  2B 72 78 7D EF 7A 78 7E 
    64)      9054.9  Rx         07B9  8  2C 10 82 78 7E 31 8A 78 
    65)      9055.0  Rx         07B9  8  2D 7E 52 92 78 7E 73 9A 
    66)      9055.1  Rx         07B9  8  2E 78 7E 94 A2 78 7E B5 
    67)      9055.5  Rx         07B9  8  2F AA 78 7E D6 B2 78 7E 
    68)      9055.8  Rx         07B9  8  20 F7 BA 78 7F 18 C2 78 
    69)      9055.9  Rx         07B9  8  21 7F 39 CA 78 7F 5A D2 
    70)      9056.2  Rx         07B9  8  22 78 7F 7B DA 78 7F 9C 
    71)      9056.3  Rx         07B9  8  23 E2 78 7F BD EA 78 7F 
    72)      9056.4  Rx         07B9  8  24 DE F2 78 7F FF FA 78 
    73)      9056.5  Rx         07B9  8  25 70 88 E0 00 70 80 C0 
    74)      9056.7  Rx         07B9  8  26 00 70 A8 E0 00 70 B0 
    75)      9056.8  Rx         07B9  8  27 C0 00 7C 04 28 40 E0 
    76)      9056.9  Rx         07B9  8  28 06 1A 04 09 00 18 84 
    77)      9057.0  Rx         07B9  8  29 80 40 E8 F9 70 60 02 
    78)      9057.1  Rx         07B9  8  2A 01 7C 75 FB A6 00 04 
    79)      9057.2  Rx         07B9  8  2B 44 00 70 60 E0 06 70 
    80)      9057.2  Rx         07B9  8  2C 62 C0 00 7C 60 01 24 
    81)      9057.3  Rx         07B9  8  2D 70 60 E0 01 70 62 C0 
    82)      9057.4  Rx         07B9  8  2E 00 7C 7F 0B A6 00 04 
    83)      9057.5  Rx         07B9  8  2F 00 00 00 00 00 00 00 
    84)      9057.5  Rx         07B9  8  20 00 00 00 78 00 78 E0 
    85)      9057.6  Rx         07B9  8  21 00 00 00 00 00 00 00 
    86)      9057.7  Rx         07B9  8  22 00 00 00 00 00 18 21 
    87)      9057.8  Rx         07B9  8  23 06 B0 18 81 11 08 18 
    88)      9057.9  Rx         07B9  8  24 21 11 10 18 01 11 20 
    89)      9057.9  Rx         07B9  8  25 70 7F E7 F4 70 70 C0 
    90)      9058.0  Rx         07B9  8  26 10 C0 33 C0 33 00 B3 
    91)      9058.1  Rx         07B9  8  27 7C 1B 02 A6 61 00 7C 
    92)      9058.2  Rx         07B9  8  28 00 01 24 00 07 7C 00 
    93)      9058.3  Rx         07B9  8  29 06 AC 70 7F E7 F4 70 
    94)      9058.4  Rx         07B9  8  2A 70 C0 18 D0 33 18 01 
    95)      9058.4  Rx         07B9  8  2B 10 20 18 21 10 10 18 
    96)      9058.5  Rx         07B9  8  2C 81 10 08 18 21 80 50 
    97)      9058.6  Rx         07B9  8  2D 00 08 00 00 00 00 00 
    98)      9058.7  Rx         07B9  8  2E 00 70 28 E0 00 70 21 
    99)      9058.8  Rx         07B9  8  2F C0 00 48 00 18 01 06 
   100)      9058.9  Rx         07B9  8  20 F8 70 40 E0 05 70 49 
   101)      9058.9  Rx         07B9  8  21 C3 00 71 A8 E0 00 71 
   102)      9059.0  Rx         07B9  8  22 B4 C7 AC 18 00 D0 00 
   103)      9059.1  Rx         07B9  8  23 78 02 A7 FF 70 88 E0 
   104)      9059.2  Rx         07B9  8  24 00 70 84 C7 B8 70 A8 
   105)      9059.3  Rx         07B9  8  25 E0 00 70 AF C2 15 48 
   106)      9059.4  Rx         07B9  8  26 07 7C 04 28 40 E0 04 
   107)      9059.4  Rx         07B9  8  27 D0 74 20 34 E8 FB 70 
   108)      9059.5  Rx         07B9  8  28 80 E0 04 70 99 C3 00 
   109)      9059.6  Rx         07B9  8  29 70 A8 E0 00 70 A1 C0 
   110)      9059.7  Rx         07B9  8  2A 00 70 C8 E0 00 70 C4 
   111)      9059.7  Rx         07B9  8  2B C7 B8 7C 05 30 40 E0 
   112)      9060.0  Rx         07B9  8  2C 06 C0 74 20 34 D0 75 
   113)      9060.1  Rx         07B9  8  2D 20 35 E8 F9 78 00 00 
   114)      9060.3  Rx         07B9  8  2E 13 78 00 2C 91 78 00 
   115)      9060.4  Rx         07B9  8  2F 00 04 78 00 00 00 00 
   116)      9060.5  Rx         07B9  8  20 04 00 04 00 04 00 00 
   117)      9060.6  Rx         07B9  8  21 00 00 00 00 00 00 00 
   118)      9060.6  Rx         07B9  8  22 00 00 00 00 00 00 00 
   119)      9060.7  Rx         07B9  8  23 00 00 00 00 00 00 00 
   120)      9060.8  Rx         07B9  8  24 00 00 00 00 00 00 00 
   121)      9060.9  Rx         07B9  8  25 00 00 00 00 00 00 00 
   122)      9061.0  Rx         07B9  8  26 00 00 00 00 00 00 00 
   123)      9061.1  Rx         07B9  8  27 00 00 00 00 00 00 00 
   124)      9061.1  Rx         07B9  8  28 00 00 00 00 00 00 00 
   125)      9061.2  Rx         07B9  8  29 00 00 00 00 00 00 00 
   126)      9073.9  Rx         0729  8  02 76 01 00 00 00 00 00 
   127)      9140.3  Rx         07B9  8  12 02 36 02 00 00 00 00 
   128)      9141.1  Rx         0729  8  30 00 00 00 00 00 00 00 
   129)      9159.6  Rx         07B9  8  21 00 00 00 00 00 00 00 
   130)      9159.6  Rx         07B9  8  22 00 00 00 00 00 00 00 
   131)      9159.7  Rx         07B9  8  23 00 00 00 00 00 00 00 
   132)      9159.8  Rx         07B9  8  24 00 00 00 00 00 00 00 
   133)      9159.9  Rx         07B9  8  25 00 00 00 00 00 00 00 
   134)      9159.9  Rx         07B9  8  26 00 00 00 00 00 00 00 
   135)      9160.0  Rx         07B9  8  27 00 00 00 00 00 00 00 
   136)      9160.0  Rx         07B9  8  28 00 00 00 00 00 00 00 
   137)      9160.0  Rx         07B9  8  29 00 00 00 00 00 00 00 
   138)      9160.1  Rx         07B9  8  2A 00 00 00 00 00 00 00 
   139)      9160.5  Rx         07B9  8  2B 00 00 00 00 00 00 00 
   140)      9160.6  Rx         07B9  8  2C 00 00 00 00 00 00 00 
   141)      9160.7  Rx         07B9  8  2D 00 00 00 00 00 00 00 
   142)      9160.8  Rx         07B9  8  2E 00 00 00 00 00 00 00 
   143)      9160.9  Rx         07B9  8  2F 00 00 00 00 00 00 00 
   144)      9160.9  Rx         07B9  8  20 00 00 00 00 00 00 00 
   145)      9161.0  Rx         07B9  8  21 00 00 00 00 00 00 00 
   146)      9161.1  Rx         07B9  8  22 00 00 00 00 00 00 00 
   147)      9161.2  Rx         07B9  8  23 00 00 00 00 00 00 00 
   148)      9161.2  Rx         07B9  8  24 00 00 00 00 00 00 00 
   149)      9161.3  Rx         07B9  8  25 00 00 00 00 00 00 00 
   150)      9161.3  Rx         07B9  8  26 00 00 00 00 00 00 00 
   151)      9161.3  Rx         07B9  8  27 00 00 00 00 00 00 00 
   152)      9161.4  Rx         07B9  8  28 00 00 00 00 00 00 00 
   153)      9161.4  Rx         07B9  8  29 00 00 00 00 00 00 00 
   154)      9161.5  Rx         07B9  8  2A 00 00 00 00 00 00 00 
   155)      9161.5  Rx         07B9  8  2B 00 00 00 00 00 00 00 
   156)      9161.5  Rx         07B9  8  2C 00 00 00 00 00 00 00 
   157)      9161.6  Rx         07B9  8  2D 00 00 00 00 00 00 00 
   158)      9161.6  Rx         07B9  8  2E 00 00 00 00 00 00 00 
   159)      9161.7  Rx         07B9  8  2F 00 00 00 00 00 00 00 
   160)      9161.7  Rx         07B9  8  20 00 00 00 00 00 00 00 
   161)      9161.7  Rx         07B9  8  21 00 00 00 00 00 00 00 
   162)      9161.8  Rx         07B9  8  22 00 00 00 00 00 00 00 
   163)      9161.9  Rx         07B9  8  23 00 00 00 00 00 00 00 
   164)      9162.0  Rx         07B9  8  24 00 00 00 00 00 00 00 
   165)      9162.0  Rx         07B9  8  25 00 00 00 00 00 00 00 
   166)      9162.1  Rx         07B9  8  26 00 00 00 00 00 00 00 
   167)      9162.1  Rx         07B9  8  27 00 00 00 00 00 00 00 
   168)      9162.1  Rx         07B9  8  28 00 00 00 00 00 00 00 
   169)      9162.2  Rx         07B9  8  29 00 00 00 00 00 00 00 
   170)      9162.2  Rx         07B9  8  2A 00 00 00 00 00 00 00 
   171)      9162.3  Rx         07B9  8  2B 00 00 00 00 00 00 00 
   172)      9162.3  Rx         07B9  8  2C 00 00 00 00 00 00 00 
   173)      9162.4  Rx         07B9  8  2D 00 00 00 00 00 00 00 
   174)      9162.4  Rx         07B9  8  2E 00 00 00 00 00 00 00 
   175)      9162.4  Rx         07B9  8  2F 00 00 00 00 00 00 00 
   176)      9162.5  Rx         07B9  8  20 00 00 00 00 00 00 00 
   177)      9162.5  Rx         07B9  8  21 00 00 00 00 00 00 00 
   178)      9162.6  Rx         07B9  8  22 00 00 00 00 00 00 00 
   179)      9162.6  Rx         07B9  8  23 00 00 00 00 00 00 00 
   180)      9162.6  Rx         07B9  8  24 00 00 00 00 00 00 00 
   181)      9162.7  Rx         07B9  8  25 00 00 00 00 00 00 00 
   182)      9162.7  Rx         07B9  8  26 00 00 00 00 00 00 00 
   183)      9162.8  Rx         07B9  8  27 00 00 00 00 00 00 00 
   184)      9162.9  Rx         07B9  8  28 00 00 00 00 00 00 00 
   185)      9162.9  Rx         07B9  8  29 00 00 00 00 00 00 00 
   186)      9163.0  Rx         07B9  8  2A 00 00 00 00 00 00 00 
   187)      9163.0  Rx         07B9  8  2B 00 00 00 00 00 00 00 
   188)      9163.0  Rx         07B9  8  2C 00 00 00 00 00 00 00 
   189)      9163.1  Rx         07B9  8  2D 00 00 00 00 00 00 00 
   190)      9163.1  Rx         07B9  8  2E 00 00 00 00 00 00 00 
   191)      9163.2  Rx         07B9  8  2F 00 00 00 00 00 00 00 
   192)      9163.2  Rx         07B9  8  20 00 00 00 00 00 00 00 
   193)      9163.2  Rx         07B9  8  21 00 00 00 00 00 00 00 
   194)      9163.3  Rx         07B9  8  22 00 00 00 00 00 00 00 
   195)      9163.3  Rx         07B9  8  23 00 00 00 00 00 00 00 
   196)      9163.4  Rx         07B9  8  24 00 00 00 00 00 00 00 
   197)      9163.4  Rx         07B9  8  25 00 00 00 00 00 00 00 
   198)      9163.4  Rx         07B9  8  26 00 00 00 00 00 00 00 
   199)      9163.5  Rx         07B9  8  27 00 00 00 00 00 00 00 
   200)      9163.5  Rx         07B9  8  28 00 00 00 00 00 00 00 
   201)      9163.6  Rx         07B9  8  29 00 00 00 00 00 00 00 
   202)      9180.2  Rx         0729  8  02 76 02 00 00 00 00 00 
   203)      9242.0  Rx         07B9  8  12 02 36 03 00 00 00 00 
   204)      9242.8  Rx         0729  8  30 00 00 00 00 00 00 00 
   205)      9244.3  Rx         07B9  8  21 00 00 00 00 00 00 00 
   206)      9244.4  Rx         07B9  8  22 00 00 00 00 00 00 00 
   207)      9244.5  Rx         07B9  8  23 00 00 00 00 00 00 00 
   208)      9244.6  Rx         07B9  8  24 00 00 00 00 00 00 00 
   209)      9244.7  Rx         07B9  8  25 00 00 00 00 00 00 00 
   210)      9244.7  Rx         07B9  8  26 00 00 00 00 00 00 00 
   211)      9244.8  Rx         07B9  8  27 00 00 00 00 00 00 00 
   212)      9244.9  Rx         07B9  8  28 00 00 00 00 00 00 00 
   213)      9245.0  Rx         07B9  8  29 00 00 00 00 00 00 00 
   214)      9245.3  Rx         07B9  8  2A 00 00 00 00 00 00 00 
   215)      9245.5  Rx         07B9  8  2B 00 00 00 00 00 00 00 
   216)      9245.6  Rx         07B9  8  2C 00 00 00 00 00 00 00 
   217)      9245.8  Rx         07B9  8  2D 00 00 00 00 00 00 00 
   218)      9245.9  Rx         07B9  8  2E 00 00 00 00 00 00 00 
   219)      9246.1  Rx         07B9  8  2F 00 00 00 00 00 00 00 
   220)      9246.3  Rx         07B9  8  20 00 00 00 00 00 00 00 
   221)      9246.4  Rx         07B9  8  21 00 00 00 00 00 00 00 
   222)      9246.6  Rx         07B9  8  22 00 00 00 00 00 00 00 
   223)      9246.7  Rx         07B9  8  23 00 00 00 00 00 00 00 
   224)      9246.8  Rx         07B9  8  24 00 00 00 00 00 00 00 
   225)      9246.9  Rx         07B9  8  25 00 00 00 00 00 00 00 
   226)      9247.1  Rx         07B9  8  26 00 00 00 00 00 00 00 
   227)      9247.1  Rx         07B9  8  27 00 00 00 00 00 00 00 
   228)      9247.2  Rx         07B9  8  28 00 00 00 00 00 00 00 
   229)      9247.3  Rx         07B9  8  29 00 00 00 00 00 00 00 
   230)      9247.4  Rx         07B9  8  2A 00 00 00 00 00 00 00 
   231)      9247.6  Rx         07B9  8  2B 00 00 00 00 00 00 00 
   232)      9247.8  Rx         07B9  8  2C 00 00 00 00 00 00 00 
   233)      9248.0  Rx         07B9  8  2D 00 00 00 00 00 00 00 
   234)      9248.1  Rx         07B9  8  2E 00 00 00 00 00 00 00 
   235)      9248.2  Rx         07B9  8  2F 00 00 00 00 00 00 00 
   236)      9248.3  Rx         07B9  8  20 00 00 00 00 00 00 00 
   237)      9248.5  Rx         07B9  8  21 00 00 00 00 00 00 00 
   238)      9248.7  Rx         07B9  8  22 00 00 00 00 00 00 00 
   239)      9248.7  Rx         07B9  8  23 00 00 00 00 00 00 00 
   240)      9249.0  Rx         07B9  8  24 00 00 00 00 00 00 00 
   241)      9249.2  Rx         07B9  8  25 00 00 00 00 00 00 00 
   242)      9249.3  Rx         07B9  8  26 00 00 00 00 00 00 00 
   243)      9249.4  Rx         07B9  8  27 00 00 00 00 00 00 00 
   244)      9249.5  Rx         07B9  8  28 00 00 00 00 00 00 00 
   245)      9249.6  Rx         07B9  8  29 00 00 00 00 00 00 00 
   246)      9249.7  Rx         07B9  8  2A 00 00 00 00 00 00 00 
   247)      9249.8  Rx         07B9  8  2B 00 00 00 00 00 00 00 
   248)      9249.9  Rx         07B9  8  2C 00 00 00 00 00 00 00 
   249)      9250.1  Rx         07B9  8  2D 00 00 00 00 00 00 00 
   250)      9250.2  Rx         07B9  8  2E 00 00 00 00 00 00 00 
   251)      9250.3  Rx         07B9  8  2F 00 00 00 00 00 00 00 
   252)      9250.5  Rx         07B9  8  20 00 00 00 00 00 00 00 
   253)      9250.7  Rx         07B9  8  21 00 00 00 00 00 00 00 
   254)      9251.0  Rx         07B9  8  22 00 00 00 00 00 00 00 
   255)      9251.2  Rx         07B9  8  23 00 00 00 00 00 00 00 
   256)      9251.2  Rx         07B9  8  24 00 00 00 00 00 00 00 
   257)      9251.3  Rx         07B9  8  25 00 00 00 00 00 00 00 
   258)      9251.8  Rx         07B9  8  26 00 00 00 00 00 00 00 
   259)      9251.8  Rx         07B9  8  27 00 00 00 00 00 00 00 
   260)      9251.9  Rx         07B9  8  28 00 00 00 00 00 00 00 
   261)      9252.0  Rx         07B9  8  29 00 00 00 00 00 00 00 
   262)      9252.1  Rx         07B9  8  2A 00 00 00 00 00 00 00 
   263)      9252.1  Rx         07B9  8  2B 00 00 00 00 00 00 00 
   264)      9252.2  Rx         07B9  8  2C 00 00 00 00 00 00 00 
   265)      9252.3  Rx         07B9  8  2D 00 00 00 00 00 00 00 
   266)      9252.3  Rx         07B9  8  2E 00 00 00 00 00 00 00 
   267)      9252.4  Rx         07B9  8  2F 00 00 00 00 00 00 00 
   268)      9252.4  Rx         07B9  8  20 00 00 00 00 00 00 00 
   269)      9252.5  Rx         07B9  8  21 00 00 00 00 00 00 00 
   270)      9252.6  Rx         07B9  8  22 00 00 00 00 00 00 00 
   271)      9252.6  Rx         07B9  8  23 00 00 00 00 00 00 00 
   272)      9252.7  Rx         07B9  8  24 00 00 00 00 00 00 00 
   273)      9252.8  Rx         07B9  8  25 00 00 00 00 00 00 00 
   274)      9252.8  Rx         07B9  8  26 00 00 00 00 00 00 00 
   275)      9252.9  Rx         07B9  8  27 00 00 00 00 00 00 00 
   276)      9252.9  Rx         07B9  8  28 00 00 00 00 00 00 00 
   277)      9253.0  Rx         07B9  8  29 00 00 00 00 00 00 00 
   278)      9265.0  Rx         0729  8  02 76 03 00 00 00 00 00 
   279)      9345.4  Rx         07B9  8  12 02 36 04 00 00 00 00 
   280)      9346.3  Rx         0729  8  30 00 00 00 00 00 00 00 
   281)      9350.4  Rx         07B9  8  21 00 00 00 00 00 00 00 
   282)      9350.5  Rx         07B9  8  22 00 00 00 00 00 00 00 
   283)      9350.6  Rx         07B9  8  23 00 00 00 00 00 00 00 
   284)      9350.7  Rx         07B9  8  24 00 00 00 00 00 00 00 
   285)      9350.7  Rx         07B9  8  25 00 00 00 00 00 00 00 
   286)      9350.7  Rx         07B9  8  26 00 00 00 00 00 00 00 
   287)      9350.8  Rx         07B9  8  27 00 00 00 00 00 00 00 
   288)      9351.0  Rx         07B9  8  28 00 00 00 00 00 00 00 
   289)      9351.0  Rx         07B9  8  29 00 00 00 00 00 00 00 
   290)      9351.1  Rx         07B9  8  2A 00 00 00 00 00 00 00 
   291)      9351.1  Rx         07B9  8  2B 00 00 00 00 00 00 00 
   292)      9351.2  Rx         07B9  8  2C 00 00 00 00 00 00 00 
   293)      9351.2  Rx         07B9  8  2D 00 00 00 00 00 00 00 
   294)      9351.3  Rx         07B9  8  2E 00 00 00 00 00 00 00 
   295)      9351.3  Rx         07B9  8  2F 00 00 00 00 00 00 00 
   296)      9351.4  Rx         07B9  8  20 00 00 00 00 00 00 00 
   297)      9351.4  Rx         07B9  8  21 00 00 00 00 00 00 00 
   298)      9351.5  Rx         07B9  8  22 00 00 00 00 00 00 00 
   299)      9351.5  Rx         07B9  8  23 00 00 00 00 00 00 00 
   300)      9351.5  Rx         07B9  8  24 00 00 00 00 00 00 00 
   301)      9351.6  Rx         07B9  8  25 00 00 00 00 00 00 00 
   302)      9351.6  Rx         07B9  8  26 00 00 00 00 00 00 00 
   303)      9351.7  Rx         07B9  8  27 00 00 00 00 00 00 00 
   304)      9351.7  Rx         07B9  8  28 00 00 00 00 00 00 00 
   305)      9351.7  Rx         07B9  8  29 00 00 00 00 00 00 00 
   306)      9351.8  Rx         07B9  8  2A 00 00 00 00 00 00 00 
   307)      9351.8  Rx         07B9  8  2B 00 00 00 00 00 00 00 
   308)      9351.9  Rx         07B9  8  2C 00 00 00 00 00 00 00 
   309)      9351.9  Rx         07B9  8  2D 00 00 00 00 00 00 00 
   310)      9351.9  Rx         07B9  8  2E 00 00 00 00 00 00 00 
   311)      9352.0  Rx         07B9  8  2F 00 00 00 00 00 00 00 
   312)      9352.0  Rx         07B9  8  20 00 00 00 00 00 00 00 
   313)      9352.1  Rx         07B9  8  21 00 00 00 00 00 00 00 
   314)      9352.1  Rx         07B9  8  22 00 00 00 00 00 00 00 
   315)      9352.1  Rx         07B9  8  23 00 00 00 00 00 00 00 
   316)      9352.2  Rx         07B9  8  24 00 00 00 00 00 00 00 
   317)      9352.2  Rx         07B9  8  25 00 00 00 00 00 00 00 
   318)      9352.2  Rx         07B9  8  26 00 00 00 00 00 00 00 
   319)      9352.3  Rx         07B9  8  27 00 00 00 00 00 00 00 
   320)      9352.3  Rx         07B9  8  28 00 00 00 00 00 00 00 
   321)      9352.4  Rx         07B9  8  29 00 00 00 00 00 00 00 
   322)      9352.4  Rx         07B9  8  2A 00 00 00 00 00 00 00 
   323)      9352.5  Rx         07B9  8  2B 00 00 00 00 00 00 00 
   324)      9352.5  Rx         07B9  8  2C 00 00 00 00 00 00 00 
   325)      9352.5  Rx         07B9  8  2D 00 00 00 00 00 00 00 
   326)      9352.6  Rx         07B9  8  2E 00 00 00 00 00 00 00 
   327)      9352.6  Rx         07B9  8  2F 00 00 00 00 00 00 00 
   328)      9352.6  Rx         07B9  8  20 00 00 00 00 00 00 00 
   329)      9352.7  Rx         07B9  8  21 00 00 00 00 00 00 00 
   330)      9352.7  Rx         07B9  8  22 00 00 00 00 00 00 00 
   331)      9352.8  Rx         07B9  8  23 00 00 00 00 00 00 00 
   332)      9352.8  Rx         07B9  8  24 00 00 00 00 00 00 00 
   333)      9352.9  Rx         07B9  8  25 00 00 00 00 00 00 00 
   334)      9352.9  Rx         07B9  8  26 00 00 00 00 00 00 00 
   335)      9353.0  Rx         07B9  8  27 00 00 00 00 00 00 00 
   336)      9353.0  Rx         07B9  8  28 00 00 00 00 00 00 00 
   337)      9353.0  Rx         07B9  8  29 00 00 00 00 00 00 00 
   338)      9353.1  Rx         07B9  8  2A 00 00 00 00 00 00 00 
   339)      9353.1  Rx         07B9  8  2B 00 00 00 00 00 00 00 
   340)      9353.2  Rx         07B9  8  2C 00 00 00 00 00 00 00 
   341)      9353.3  Rx         07B9  8  2D 00 00 00 00 00 00 00 
   342)      9353.3  Rx         07B9  8  2E 00 00 00 00 00 00 00 
   343)      9353.3  Rx         07B9  8  2F 00 00 00 00 00 00 00 
   344)      9353.4  Rx         07B9  8  20 00 00 00 00 00 00 00 
   345)      9353.4  Rx         07B9  8  21 00 00 00 00 00 00 00 
   346)      9353.4  Rx         07B9  8  22 00 00 00 00 00 00 00 
   347)      9353.5  Rx         07B9  8  23 00 00 00 00 00 00 00 
   348)      9353.5  Rx         07B9  8  24 00 00 00 00 00 00 00 
   349)      9353.6  Rx         07B9  8  25 00 00 00 00 00 00 00 
   350)      9353.6  Rx         07B9  8  26 00 00 00 00 00 00 00 
   351)      9353.6  Rx         07B9  8  27 00 00 00 00 00 00 00 
   352)      9353.7  Rx         07B9  8  28 00 00 00 00 00 00 00 
   353)      9353.7  Rx         07B9  8  29 00 00 00 00 00 00 00 
   354)      9371.1  Rx         0729  8  02 76 04 00 00 00 00 00 
   355)      9446.3  Rx         07B9  8  12 02 36 05 00 01 0B 64 
   356)      9447.2  Rx         0729  8  30 00 00 00 00 00 00 00 
   357)      9455.2  Rx         07B9  8  21 00 01 0B 64 00 01 0B 
   358)      9455.3  Rx         07B9  8  22 64 00 01 0B 64 00 01 
   359)      9455.4  Rx         07B9  8  23 0B 64 00 01 0B 64 00 
   360)      9455.4  Rx         07B9  8  24 01 0B 64 00 01 0B 64 
   361)      9455.5  Rx         07B9  8  25 00 01 0B 64 00 01 0B 
   362)      9455.6  Rx         07B9  8  26 64 00 01 0B 64 00 01 
   363)      9455.6  Rx         07B9  8  27 0B 64 00 01 0B 64 00 
   364)      9455.7  Rx         07B9  8  28 01 0B 64 00 01 0B 64 
   365)      9455.8  Rx         07B9  8  29 00 01 0B 64 00 01 0B 
   366)      9456.1  Rx         07B9  8  2A 64 00 01 0B 64 00 01 
   367)      9456.6  Rx         07B9  8  2B 0B 64 00 01 0B 64 00 
   368)      9456.7  Rx         07B9  8  2C 01 0B 64 00 01 0B 64 
   369)      9456.8  Rx         07B9  8  2D 00 01 0B 64 00 01 0B 
   370)      9456.9  Rx         07B9  8  2E 64 00 01 0B 64 00 01 
   371)      9457.0  Rx         07B9  8  2F 0B 64 00 01 0B 64 00 
   372)      9457.0  Rx         07B9  8  20 01 0B 64 00 03 A1 D0 
   373)      9457.3  Rx         07B9  8  21 00 01 0B 64 00 01 0B 
   374)      9457.4  Rx         07B9  8  22 64 00 01 0B 64 00 01 
   375)      9457.4  Rx         07B9  8  23 0B 64 00 01 0B 64 00 
   376)      9457.5  Rx         07B9  8  24 01 0B 64 00 01 0B 64 
   377)      9458.1  Rx         07B9  8  25 00 01 0B 64 00 01 0B 
   378)      9458.2  Rx         07B9  8  26 64 00 01 0B 64 00 01 
   379)      9458.2  Rx         07B9  8  27 0B 64 00 01 0B 64 00 
   380)      9458.3  Rx         07B9  8  28 03 AC A0 00 03 AD 20 
   381)      9458.4  Rx         07B9  8  29 00 01 0B 64 00 01 0B 
   382)      9458.4  Rx         07B9  8  2A 64 00 01 0B 64 00 03 
   383)      9458.5  Rx         07B9  8  2B C2 A0 00 03 C3 00 00 
   384)      9458.6  Rx         07B9  8  2C 03 C3 60 00 01 0B 64 
   385)      9458.6  Rx         07B9  8  2D 00 01 0B 64 00 01 0B 
   386)      9458.7  Rx         07B9  8  2E 64 00 01 0B 64 00 01 
   387)      9458.7  Rx         07B9  8  2F 0B 64 00 01 0B 64 00 
   388)      9458.8  Rx         07B9  8  20 01 0B 64 00 01 0B 64 
   389)      9458.9  Rx         07B9  8  21 00 01 0B 64 00 01 0B 
   390)      9458.9  Rx         07B9  8  22 64 00 03 B1 50 00 01 
   391)      9459.0  Rx         07B9  8  23 0B 64 00 03 95 A0 00 
   392)      9459.0  Rx         07B9  8  24 03 65 E0 00 01 0B 64 
   393)      9459.1  Rx         07B9  8  25 00 03 65 A0 00 03 6F 
   394)      9459.2  Rx         07B9  8  26 40 00 03 6F 60 00 01 
   395)      9459.2  Rx         07B9  8  27 0B 64 00 03 6E A0 00 
   396)      9459.3  Rx         07B9  8  28 03 6F 20 00 03 6D C0 
   397)      9459.4  Rx         07B9  8  29 00 03 6D E0 00 03 6E 
   398)      9459.4  Rx         07B9  8  2A 00 00 03 6E 80 00 01 
   399)      9459.5  Rx         07B9  8  2B 0B 64 00 03 93 80 00 
   400)      9459.5  Rx         07B9  8  2C 03 93 E0 00 01 0B 64 
   401)      9459.6  Rx         07B9  8  2D 00 03 93 60 00 03 A3 
   402)      9459.7  Rx         07B9  8  2E 20 00 03 A3 50 00 03 
   403)      9459.7  Rx         07B9  8  2F A3 80 00 01 0B 64 00 
   404)      9459.8  Rx         07B9  8  20 01 0B 64 00 01 0B 64 
   405)      9459.9  Rx         07B9  8  21 00 01 0B 64 00 01 0B 
   406)      9459.9  Rx         07B9  8  22 64 00 01 0B 64 00 01 
   407)      9460.0  Rx         07B9  8  23 0B 64 00 01 0B 64 00 
   408)      9460.0  Rx         07B9  8  24 01 0B 64 00 01 0B 64 
   409)      9460.1  Rx         07B9  8  25 00 01 0B 64 00 01 0B 
   410)      9460.2  Rx         07B9  8  26 64 00 01 0B 64 00 03 
   411)      9460.2  Rx         07B9  8  27 93 C0 00 03 94 00 00 
   412)      9460.3  Rx         07B9  8  28 01 0B 64 00 03 93 A0 
   413)      9460.4  Rx         07B9  8  29 00 03 A3 B0 00 03 A3 
   414)      9460.4  Rx         07B9  8  2A E0 00 03 A4 10 00 01 
   415)      9460.5  Rx         07B9  8  2B 0B 64 00 01 0B 64 00 
   416)      9460.5  Rx         07B9  8  2C 01 0B 64 00 01 0B 64 
   417)      9460.6  Rx         07B9  8  2D 00 01 0B 64 00 01 0B 
   418)      9460.7  Rx         07B9  8  2E 64 00 01 0B 64 00 01 
   419)      9460.7  Rx         07B9  8  2F 0B 64 00 01 0B 64 00 
   420)      9460.7  Rx         07B9  8  20 01 0B 64 00 01 0B 64 
   421)      9460.8  Rx         07B9  8  21 00 01 0B 64 00 01 0B 
   422)      9460.8  Rx         07B9  8  22 64 00 01 0B 64 00 01 
   423)      9460.9  Rx         07B9  8  23 0B 64 00 01 0B 64 00 
   424)      9460.9  Rx         07B9  8  24 01 0B 64 00 03 A4 40 
   425)      9460.9  Rx         07B9  8  25 00 03 A4 70 00 03 A4 
   426)      9461.0  Rx         07B9  8  26 A0 00 01 0B 64 00 01 
   427)      9461.0  Rx         07B9  8  27 0B 64 00 01 0B 64 00 
   428)      9461.1  Rx         07B9  8  28 01 0B 64 00 01 0B 64 
   429)      9461.1  Rx         07B9  8  29 00 01 0B 64 00 00 00 
   430)      9475.0  Rx         0729  8  02 76 05 00 00 00 00 00 
   431)      9547.8  Rx         07B9  8  12 02 36 06 00 01 0B 64 
   432)      9548.7  Rx         0729  8  30 00 00 00 00 00 00 00 
   433)      9565.0  Rx         07B9  8  21 00 01 0B 64 00 01 0B 
   434)      9565.1  Rx         07B9  8  22 64 00 01 0B 64 00 01 
   435)      9565.2  Rx         07B9  8  23 0B 64 00 01 0B 64 00 
   436)      9565.2  Rx         07B9  8  24 01 0B 64 00 01 0B 64 
   437)      9565.3  Rx         07B9  8  25 00 01 0B 64 00 01 0B 
   438)      9565.5  Rx         07B9  8  26 64 00 01 0B 64 00 01 
   439)      9565.5  Rx         07B9  8  27 0B 64 00 01 0B 64 00 
   440)      9565.6  Rx         07B9  8  28 01 0B 64 00 01 0B 64 
   441)      9565.6  Rx         07B9  8  29 00 01 0B 64 00 01 0B 
   442)      9565.7  Rx         07B9  8  2A 64 00 03 7D 60 00 03 
   443)      9565.8  Rx         07B9  8  2B 7D D0 00 03 7E 50 00 
   444)      9565.8  Rx         07B9  8  2C 03 7E D0 00 01 0B 64 
   445)      9565.9  Rx         07B9  8  2D 00 01 0B 64 00 01 0B 
   446)      9565.9  Rx         07B9  8  2E 64 00 01 0B 64 00 01 
   447)      9566.0  Rx         07B9  8  2F 0B 64 00 01 0B 64 00 
   448)      9566.0  Rx         07B9  8  20 01 0B 64 00 01 0B 64 
   449)      9566.0  Rx         07B9  8  21 00 01 0B 64 00 01 0B 
   450)      9566.1  Rx         07B9  8  22 64 00 01 0B 64 00 01 
   451)      9566.1  Rx         07B9  8  23 0B 64 00 01 0B 64 00 
   452)      9566.2  Rx         07B9  8  24 01 0B 64 00 01 0B 64 
   453)      9566.2  Rx         07B9  8  25 00 01 0B 64 00 01 0B 
   454)      9566.2  Rx         07B9  8  26 64 00 01 0B 64 00 01 
   455)      9566.3  Rx         07B9  8  27 0B 64 00 01 0B 64 00 
   456)      9566.3  Rx         07B9  8  28 01 0B 64 00 01 0B 64 
   457)      9566.4  Rx         07B9  8  29 00 01 0B 64 00 01 0B 
   458)      9566.4  Rx         07B9  8  2A 64 00 01 0B 64 00 01 
   459)      9566.4  Rx         07B9  8  2B 0B 64 00 01 0B 64 00 
   460)      9566.5  Rx         07B9  8  2C 01 0B 64 00 01 0B 64 
   461)      9566.5  Rx         07B9  8  2D 00 01 0B 64 00 01 0B 
   462)      9566.6  Rx         07B9  8  2E 64 00 01 0B 64 00 01 
   463)      9566.6  Rx         07B9  8  2F 0B 64 00 01 0B 64 00 
   464)      9566.7  Rx         07B9  8  20 01 0B 64 00 01 0B 64 
   465)      9566.7  Rx         07B9  8  21 00 01 0B 64 00 01 0B 
   466)      9566.8  Rx         07B9  8  22 64 00 01 0B 64 00 01 
   467)      9566.8  Rx         07B9  8  23 0B 64 00 01 0B 64 00 
   468)      9566.9  Rx         07B9  8  24 01 0B 64 00 01 0B 64 
   469)      9566.9  Rx         07B9  8  25 00 01 0B 64 00 01 0B 
   470)      9567.0  Rx         07B9  8  26 64 00 01 0B 64 00 01 
   471)      9567.0  Rx         07B9  8  27 0B 64 00 01 0B 64 00 
   472)      9567.0  Rx         07B9  8  28 01 0B 64 00 01 0B 64 
   473)      9567.1  Rx         07B9  8  29 00 01 0B 64 00 01 0B 
   474)      9567.1  Rx         07B9  8  2A 64 00 01 0B 64 00 01 
   475)      9567.2  Rx         07B9  8  2B 0B 64 00 01 0B 64 00 
   476)      9567.2  Rx         07B9  8  2C 01 0B 64 00 01 0B 64 
   477)      9567.2  Rx         07B9  8  2D 00 01 0B 64 00 01 0B 
   478)      9567.3  Rx         07B9  8  2E 64 00 01 0B 64 00 01 
   479)      9567.3  Rx         07B9  8  2F 0B 64 00 01 0B 64 00 
   480)      9567.4  Rx         07B9  8  20 01 0B 64 00 01 0B 64 
   481)      9567.4  Rx         07B9  8  21 00 01 0B 64 00 01 0B 
   482)      9567.4  Rx         07B9  8  22 64 00 01 0B 64 00 01 
   483)      9567.5  Rx         07B9  8  23 0B 64 E8 00 00 00 00 
   484)      9567.5  Rx         07B9  8  24 00 00 00 00 00 00 00 
   485)      9567.5  Rx         07B9  8  25 00 00 00 00 00 00 00 
   486)      9567.6  Rx         07B9  8  26 00 00 00 00 00 00 00 
   487)      9567.6  Rx         07B9  8  27 00 00 00 00 00 00 00 
   488)      9567.7  Rx         07B9  8  28 00 00 00 00 00 00 00 
   489)      9567.7  Rx         07B9  8  29 00 00 00 00 00 00 00 
   490)      9567.7  Rx         07B9  8  2A 00 00 00 00 00 00 00 
   491)      9567.8  Rx         07B9  8  2B 00 00 00 00 00 00 00 
   492)      9567.8  Rx         07B9  8  2C 00 00 00 00 00 00 00 
   493)      9567.9  Rx         07B9  8  2D 00 00 00 00 00 00 00 
   494)      9567.9  Rx         07B9  8  2E 00 00 00 00 00 00 00 
   495)      9568.0  Rx         07B9  8  2F 00 00 00 00 00 00 00 
   496)      9568.0  Rx         07B9  8  20 00 00 00 00 00 00 00 
   497)      9568.0  Rx         07B9  8  21 00 00 00 00 00 00 00 
   498)      9568.1  Rx         07B9  8  22 00 00 00 00 00 00 00 
   499)      9568.1  Rx         07B9  8  23 00 00 00 00 00 00 00 
   500)      9568.2  Rx         07B9  8  24 00 00 00 00 00 00 00 
   501)      9568.2  Rx         07B9  8  25 00 00 00 00 00 00 00 
   502)      9568.2  Rx         07B9  8  26 00 00 00 00 00 00 00 
   503)      9568.3  Rx         07B9  8  27 00 00 00 00 00 00 00 
   504)      9568.3  Rx         07B9  8  28 00 00 00 00 00 00 00 
   505)      9568.4  Rx         07B9  8  29 00 00 00 00 00 00 00 
   506)      9585.1  Rx         0729  8  02 76 06 00 00 00 00 00 
   507)      9650.6  Rx         07B9  8  12 02 36 07 00 00 00 00 
   508)      9651.5  Rx         0729  8  30 00 00 00 00 00 00 00 
   509)      9669.5  Rx         07B9  8  21 00 00 00 00 00 00 00 
   510)      9669.5  Rx         07B9  8  22 00 00 00 00 00 00 00 
   511)      9669.6  Rx         07B9  8  23 00 00 00 00 00 00 00 
   512)      9669.6  Rx         07B9  8  24 00 00 00 00 00 00 00 
   513)      9669.7  Rx         07B9  8  25 00 00 00 00 00 00 00 
   514)      9669.7  Rx         07B9  8  26 00 00 00 00 00 00 00 
   515)      9669.9  Rx         07B9  8  27 00 00 00 00 00 00 00 
   516)      9670.0  Rx         07B9  8  28 00 00 00 00 00 00 00 
   517)      9670.0  Rx         07B9  8  29 00 00 00 00 00 00 00 
   518)      9670.1  Rx         07B9  8  2A 00 00 00 00 00 00 00 
   519)      9670.2  Rx         07B9  8  2B 00 00 00 00 00 00 00 
   520)      9670.2  Rx         07B9  8  2C 00 00 00 00 00 00 00 
   521)      9670.2  Rx         07B9  8  2D 00 00 00 00 00 00 00 
   522)      9670.3  Rx         07B9  8  2E 00 00 00 00 00 00 00 
   523)      9670.3  Rx         07B9  8  2F 00 00 00 00 00 00 00 
   524)      9670.4  Rx         07B9  8  20 00 00 00 00 00 00 00 
   525)      9670.4  Rx         07B9  8  21 00 00 00 00 00 00 00 
   526)      9670.4  Rx         07B9  8  22 00 00 00 00 00 00 00 
   527)      9670.5  Rx         07B9  8  23 00 00 00 00 00 00 00 
   528)      9670.5  Rx         07B9  8  24 00 00 00 00 00 00 00 
   529)      9670.6  Rx         07B9  8  25 00 00 00 00 00 00 00 
   530)      9670.6  Rx         07B9  8  26 00 00 00 00 00 00 00 
   531)      9670.7  Rx         07B9  8  27 00 00 00 00 00 00 00 
   532)      9670.7  Rx         07B9  8  28 00 00 00 00 00 00 00 
   533)      9670.7  Rx         07B9  8  29 00 00 00 00 00 00 00 
   534)      9670.8  Rx         07B9  8  2A 00 00 00 00 00 00 00 
   535)      9670.8  Rx         07B9  8  2B 00 00 00 00 00 00 00 
   536)      9670.9  Rx         07B9  8  2C 00 00 00 00 00 00 00 
   537)      9670.9  Rx         07B9  8  2D 00 00 00 00 00 00 00 
   538)      9671.0  Rx         07B9  8  2E 00 00 00 00 00 00 00 
   539)      9671.0  Rx         07B9  8  2F 00 00 00 00 00 00 00 
   540)      9671.0  Rx         07B9  8  20 00 00 00 00 00 00 00 
   541)      9671.1  Rx         07B9  8  21 00 00 00 00 00 00 00 
   542)      9671.1  Rx         07B9  8  22 00 00 00 00 00 00 00 
   543)      9671.2  Rx         07B9  8  23 00 00 00 00 00 00 00 
   544)      9671.2  Rx         07B9  8  24 00 00 00 00 00 00 00 
   545)      9671.3  Rx         07B9  8  25 00 00 00 00 00 00 00 
   546)      9671.3  Rx         07B9  8  26 00 00 00 00 00 00 00 
   547)      9671.3  Rx         07B9  8  27 00 00 00 00 00 00 00 
   548)      9671.4  Rx         07B9  8  28 00 00 00 00 00 00 00 
   549)      9671.4  Rx         07B9  8  29 00 00 00 00 00 00 00 
   550)      9671.5  Rx         07B9  8  2A 00 00 00 00 00 00 00 
   551)      9671.5  Rx         07B9  8  2B 00 00 00 00 00 00 00 
   552)      9671.5  Rx         07B9  8  2C 00 00 00 00 00 00 00 
   553)      9671.6  Rx         07B9  8  2D 00 00 00 00 00 00 00 
   554)      9671.6  Rx         07B9  8  2E 00 00 00 00 00 00 00 
   555)      9671.7  Rx         07B9  8  2F 00 00 00 00 00 00 00 
   556)      9671.7  Rx         07B9  8  20 00 00 00 00 00 00 00 
   557)      9671.8  Rx         07B9  8  21 00 00 00 00 00 00 00 
   558)      9671.8  Rx         07B9  8  22 00 00 00 00 00 00 00 
   559)      9671.8  Rx         07B9  8  23 00 00 00 00 00 00 00 
   560)      9671.9  Rx         07B9  8  24 00 00 00 00 00 00 00 
   561)      9671.9  Rx         07B9  8  25 00 00 00 00 00 00 00 
   562)      9672.0  Rx         07B9  8  26 00 00 00 00 00 00 00 
   563)      9672.0  Rx         07B9  8  27 00 00 00 00 00 00 00 
   564)      9672.1  Rx         07B9  8  28 00 00 00 00 00 00 00 
   565)      9672.1  Rx         07B9  8  29 00 00 00 00 00 00 00 
   566)      9672.1  Rx         07B9  8  2A 00 00 00 00 00 00 00 
   567)      9672.2  Rx         07B9  8  2B 00 00 00 00 00 00 00 
   568)      9672.2  Rx         07B9  8  2C 00 00 00 00 00 00 00 
   569)      9672.3  Rx         07B9  8  2D 00 00 00 00 00 00 00 
   570)      9672.3  Rx         07B9  8  2E 00 00 00 00 00 00 00 
   571)      9672.3  Rx         07B9  8  2F 00 00 00 00 00 00 00 
   572)      9672.4  Rx         07B9  8  20 00 00 00 00 00 00 00 
   573)      9672.4  Rx         07B9  8  21 00 00 00 00 00 00 00 
   574)      9672.4  Rx         07B9  8  22 00 00 00 00 00 00 00 
   575)      9672.5  Rx         07B9  8  23 00 00 00 00 00 00 00 
   576)      9672.5  Rx         07B9  8  24 00 00 00 00 00 00 00 
   577)      9672.6  Rx         07B9  8  25 00 00 00 00 00 00 00 
   578)      9672.6  Rx         07B9  8  26 00 00 00 00 00 00 00 
   579)      9672.6  Rx         07B9  8  27 00 00 00 00 00 00 00 
   580)      9672.7  Rx         07B9  8  28 00 00 00 00 00 00 00 
   581)      9672.7  Rx         07B9  8  29 00 00 00 00 00 00 00 
   582)      9690.2  Rx         0729  8  02 76 07 00 00 00 00 00 
   583)      9751.4  Rx         07B9  8  12 02 36 08 00 00 00 00 
   584)      9752.2  Rx         0729  8  30 00 00 00 00 00 00 00 
   585)      9753.7  Rx         07B9  8  21 00 00 00 00 00 00 00 
   586)      9753.8  Rx         07B9  8  22 00 00 00 00 00 00 00 
   587)      9753.9  Rx         07B9  8  23 00 00 00 00 00 00 00 
   588)      9754.0  Rx         07B9  8  24 00 00 00 00 00 00 00 
   589)      9754.0  Rx         07B9  8  25 00 00 00 00 00 00 00 
   590)      9754.1  Rx         07B9  8  26 00 00 00 00 00 00 00 
   591)      9754.2  Rx         07B9  8  27 00 00 00 00 00 00 00 
   592)      9754.2  Rx         07B9  8  28 00 00 00 00 00 00 00 
   593)      9754.3  Rx         07B9  8  29 00 00 00 00 00 00 00 
   594)      9754.6  Rx         07B9  8  2A 00 00 00 00 00 00 00 
   595)      9754.7  Rx         07B9  8  2B 00 00 00 00 00 00 00 
   596)      9754.8  Rx         07B9  8  2C 00 00 00 00 00 00 00 
   597)      9754.8  Rx         07B9  8  2D 00 00 00 00 00 00 00 
   598)      9754.9  Rx         07B9  8  2E 00 00 00 00 00 00 00 
   599)      9755.0  Rx         07B9  8  2F 00 00 00 00 00 00 00 
   600)      9755.1  Rx         07B9  8  20 00 00 00 00 00 00 00 
   601)      9755.2  Rx         07B9  8  21 00 00 00 00 00 00 00 
   602)      9755.2  Rx         07B9  8  22 00 00 00 00 00 00 00 
   603)      9755.3  Rx         07B9  8  23 00 00 00 00 00 00 00 
   604)      9755.4  Rx         07B9  8  24 00 00 00 00 00 00 00 
   605)      9755.5  Rx         07B9  8  25 00 00 00 00 00 00 00 
   606)      9755.6  Rx         07B9  8  26 00 00 00 00 00 00 00 
   607)      9755.6  Rx         07B9  8  27 00 00 00 00 00 00 00 
   608)      9755.7  Rx         07B9  8  28 00 00 00 00 00 00 00 
   609)      9755.8  Rx         07B9  8  29 00 00 00 00 00 00 00 
   610)      9755.8  Rx         07B9  8  2A 00 00 00 00 00 00 00 
   611)      9755.9  Rx         07B9  8  2B 00 00 00 00 00 00 00 
   612)      9756.0  Rx         07B9  8  2C 00 00 00 00 00 00 00 
   613)      9756.0  Rx         07B9  8  2D 00 00 00 00 00 00 00 
   614)      9756.1  Rx         07B9  8  2E 00 00 00 00 00 00 00 
   615)      9756.2  Rx         07B9  8  2F 00 00 00 00 00 00 00 
   616)      9756.2  Rx         07B9  8  20 00 00 00 00 00 00 00 
   617)      9756.3  Rx         07B9  8  21 00 00 00 00 00 00 00 
   618)      9756.4  Rx         07B9  8  22 00 00 00 00 00 00 00 
   619)      9756.5  Rx         07B9  8  23 00 00 00 00 00 00 00 
   620)      9756.6  Rx         07B9  8  24 00 00 00 00 00 00 00 
   621)      9756.6  Rx         07B9  8  25 00 00 00 00 00 00 00 
   622)      9756.7  Rx         07B9  8  26 00 00 00 00 00 00 00 
   623)      9756.8  Rx         07B9  8  27 00 00 00 00 00 00 00 
   624)      9756.9  Rx         07B9  8  28 00 00 00 00 00 00 00 
   625)      9757.0  Rx         07B9  8  29 00 00 00 00 00 00 00 
   626)      9757.0  Rx         07B9  8  2A 00 00 00 00 00 00 00 
   627)      9757.1  Rx         07B9  8  2B 00 00 00 00 00 00 00 
   628)      9757.2  Rx         07B9  8  2C 00 00 00 00 00 00 00 
   629)      9757.3  Rx         07B9  8  2D 00 00 00 00 00 00 00 
   630)      9757.4  Rx         07B9  8  2E 00 00 00 00 00 00 00 
   631)      9757.4  Rx         07B9  8  2F 00 00 00 00 00 00 00 
   632)      9757.5  Rx         07B9  8  20 00 00 00 00 00 00 00 
   633)      9757.6  Rx         07B9  8  21 00 00 00 00 00 00 00 
   634)      9757.6  Rx         07B9  8  22 00 00 00 00 00 00 00 
   635)      9757.7  Rx         07B9  8  23 00 00 00 00 00 00 00 
   636)      9757.8  Rx         07B9  8  24 00 00 00 00 00 00 00 
   637)      9757.9  Rx         07B9  8  25 00 00 00 00 00 00 00 
   638)      9757.9  Rx         07B9  8  26 00 00 00 00 00 00 00 
   639)      9758.1  Rx         07B9  8  27 00 00 00 00 00 00 00 
   640)      9758.1  Rx         07B9  8  28 00 00 00 00 00 00 00 
   641)      9758.2  Rx         07B9  8  29 00 00 00 00 00 00 00 
   642)      9758.3  Rx         07B9  8  2A 00 00 00 00 00 00 00 
   643)      9758.4  Rx         07B9  8  2B 00 00 00 00 00 00 00 
   644)      9758.5  Rx         07B9  8  2C 00 00 00 00 00 00 00 
   645)      9758.5  Rx         07B9  8  2D 00 00 00 00 00 00 00 
   646)      9758.6  Rx         07B9  8  2E 00 00 00 00 00 00 00 
   647)      9758.7  Rx         07B9  8  2F 00 00 00 00 00 00 00 
   648)      9758.7  Rx         07B9  8  20 00 00 00 00 00 00 00 
   649)      9758.8  Rx         07B9  8  21 00 00 00 00 00 00 00 
   650)      9758.9  Rx         07B9  8  22 00 00 00 00 00 00 00 
   651)      9758.9  Rx         07B9  8  23 00 00 00 00 00 00 00 
   652)      9759.0  Rx         07B9  8  24 00 00 00 00 00 00 00 
   653)      9759.1  Rx         07B9  8  25 00 00 00 00 00 00 00 
   654)      9759.2  Rx         07B9  8  26 00 00 00 00 00 00 00 
   655)      9759.2  Rx         07B9  8  27 00 00 00 00 00 00 00 
   656)      9759.3  Rx         07B9  8  28 00 00 00 00 00 00 00 
   657)      9759.3  Rx         07B9  8  29 00 00 00 00 00 00 00 
   658)      9774.4  Rx         0729  8  02 76 08 00 00 00 00 00 
   659)      9853.5  Rx         07B9  8  12 02 36 09 79 FF F0 E0 
   660)      9854.3  Rx         0729  8  30 00 00 00 00 00 00 00 
   661)      9858.8  Rx         07B9  8  21 44 00 44 00 44 00 44 
   662)      9859.1  Rx         07B9  8  22 00 44 00 44 00 79 FF 
   663)      9859.5  Rx         07B9  8  23 F0 D0 44 00 44 00 44 
   664)      9859.7  Rx         07B9  8  24 00 44 00 44 00 44 00 
   665)      9860.0  Rx         07B9  8  25 78 00 68 E0 44 00 44 
   666)      9860.1  Rx         07B9  8  26 00 44 00 44 00 44 00 
   667)      9860.1  Rx         07B9  8  27 44 00 78 00 68 D0 44 
   668)      9860.2  Rx         07B9  8  28 00 44 00 44 00 44 00 
   669)      9860.3  Rx         07B9  8  29 44 00 44 00 79 FF F0 
   670)      9860.4  Rx         07B9  8  2A B0 44 00 44 00 44 00 
   671)      9860.4  Rx         07B9  8  2B 44 00 44 00 44 00 79 
   672)      9860.5  Rx         07B9  8  2C FF F0 90 44 00 44 00 
   673)      9860.6  Rx         07B9  8  2D 44 00 44 00 44 00 44 
   674)      9860.6  Rx         07B9  8  2E 00 79 FF F0 80 44 00 
   675)      9860.7  Rx         07B9  8  2F 44 00 44 00 44 00 44 
   676)      9860.7  Rx         07B9  8  20 00 44 00 79 FF F0 70 
   677)      9860.8  Rx         07B9  8  21 44 00 44 00 44 00 44 
   678)      9860.9  Rx         07B9  8  22 00 44 00 44 00 79 FF 
   679)      9860.9  Rx         07B9  8  23 F0 60 44 00 44 00 44 
   680)      9861.0  Rx         07B9  8  24 00 44 00 44 00 44 00 
   681)      9861.1  Rx         07B9  8  25 79 FF F0 50 44 00 44 
   682)      9861.1  Rx         07B9  8  26 00 44 00 44 00 44 00 
   683)      9861.2  Rx         07B9  8  27 44 00 79 FF F0 40 44 
   684)      9861.2  Rx         07B9  8  28 00 44 00 44 00 44 00 
   685)      9861.3  Rx         07B9  8  29 44 00 44 00 79 FF F0 
   686)      9861.4  Rx         07B9  8  2A 30 44 00 44 00 44 00 
   687)      9861.4  Rx         07B9  8  2B 44 00 44 00 44 00 79 
   688)      9861.5  Rx         07B9  8  2C FF F0 20 44 00 44 00 
   689)      9861.5  Rx         07B9  8  2D 44 00 44 00 44 00 44 
   690)      9861.6  Rx         07B9  8  2E 00 79 FF F0 10 44 00 
   691)      9861.7  Rx         07B9  8  2F 44 00 44 00 44 00 44 
   692)      9861.7  Rx         07B9  8  20 00 44 00 79 FF F0 00 
   693)      9861.8  Rx         07B9  8  21 44 00 44 00 44 00 44 
   694)      9861.9  Rx         07B9  8  22 00 44 00 44 00 79 FF 
   695)      9861.9  Rx         07B9  8  23 EF F0 00 00 00 00 00 
   696)      9862.0  Rx         07B9  8  24 00 00 00 00 00 00 00 
   697)      9862.1  Rx         07B9  8  25 18 21 06 F0 00 80 D3 
   698)      9862.1  Rx         07B9  8  26 F1 D5 01 01 3F 70 89 
   699)      9862.2  Rx         07B9  8  27 E7 00 78 00 09 61 2A 
   700)      9862.2  Rx         07B9  8  28 03 01 F3 7A 00 00 12 
   701)      9862.3  Rx         07B9  8  29 78 00 0A 85 C5 01 00 
   702)      9862.4  Rx         07B9  8  2A 90 C3 F1 20 F1 00 04 
   703)      9862.4  Rx         07B9  8  2B 70 89 E7 00 78 00 05 
   704)      9862.5  Rx         07B9  8  2C A3 78 00 0A 6F C5 01 
   705)      9862.6  Rx         07B9  8  2D 00 90 C3 F1 18 63 83 
   706)      9862.6  Rx         07B9  8  2E 80 20 F1 00 04 00 00 
   707)      9862.7  Rx         07B9  8  2F 00 00 00 00 00 00 00 
   708)      9862.8  Rx         07B9  8  20 00 00 00 18 21 06 F0 
   709)      9862.8  Rx         07B9  8  21 00 80 1B C1 09 08 D5 
   710)      9862.9  Rx         07B9  8  22 01 01 4F 01 3E 70 A8 
   711)      9862.9  Rx         07B9  8  23 E1 E0 48 06 78 00 13 
   712)      9863.0  Rx         07B9  8  24 7B 2A 03 7A 00 00 18 
   713)      9863.1  Rx         07B9  8  25 01 E3 01 F4 78 00 14 
   714)      9863.1  Rx         07B9  8  26 CD C5 01 00 90 1B C1 
   715)      9863.2  Rx         07B9  8  27 08 08 20 F1 00 04 70 
   716)      9863.3  Rx         07B9  8  28 A8 E1 E0 48 06 01 E3 
   717)      9863.3  Rx         07B9  8  29 01 F4 78 00 0E 87 78 
   718)      9863.4  Rx         07B9  8  2A 00 14 AF C5 01 00 90 
   719)      9863.5  Rx         07B9  8  2B 1B C1 08 08 18 63 83 
   720)      9863.5  Rx         07B9  8  2C 80 20 F1 00 04 00 00 
   721)      9863.6  Rx         07B9  8  2D 00 00 00 00 00 00 00 
   722)      9863.6  Rx         07B9  8  2E 00 18 21 06 F0 01 40 
   723)      9863.7  Rx         07B9  8  2F 1B C1 09 08 02 33 01 
   724)      9863.8  Rx         07B9  8  20 6F 2A 05 7A 02 00 B2 
   725)      9863.8  Rx         07B9  8  21 0D 36 7A 01 01 84 7C 
   726)      9863.9  Rx         07B9  8  22 C7 00 34 2A 07 7A 12 
   727)      9863.9  Rx         07B9  8  23 00 1A 42 73 19 67 B0 
   728)      9864.0  Rx         07B9  8  24 20 7C DF 38 30 7C 8B 
   729)      9864.1  Rx         07B9  8  25 5C 30 7C 80 38 30 7D 
   730)      9864.1  Rx         07B9  8  26 6B 1B 78 7F E4 84 70 
   731)      9864.2  Rx         07B9  8  27 77 E9 04 3F 7F CB 23 
   732)      9864.2  Rx         07B9  8  28 96 7C 05 84 70 7C 7E 
   733)      9864.3  Rx         07B9  8  29 21 D6 01 E7 00 00 00 
   734)      9879.0  Rx         0729  8  02 76 09 00 00 00 00 00 
   735)      9954.9  Rx         07B9  8  12 02 36 0A 7D 63 58 50 
   736)      9955.7  Rx         0729  8  30 00 00 00 00 00 00 00 
   737)      9964.1  Rx         07B9  8  21 7C 7E 49 D6 7D 6B 80 
   738)      9964.2  Rx         07B9  8  22 70 7D 66 2B 78 0D 63 
   739)      9964.2  Rx         07B9  8  23 7A 01 00 1C 04 F6 18 
   740)      9964.3  Rx         07B9  8  24 FE 84 FF 0D 6F 7A 11 
   741)      9964.3  Rx         07B9  8  25 00 10 0D 63 7A 01 00 
   742)      9964.4  Rx         07B9  8  26 0A 18 FE 84 FE 04 F6 
   743)      9964.4  Rx         07B9  8  27 06 36 74 00 04 3F 7C 
   744)      9964.4  Rx         07B9  8  28 66 23 96 7C A3 21 D6 
   745)      9964.5  Rx         07B9  8  29 01 34 06 56 7C A3 49 
   746)      9964.5  Rx         07B9  8  2A D6 6D 06 44 06 0D 65 
   747)      9964.6  Rx         07B9  8  2B 7A 01 00 1A 04 F6 18 
   748)      9964.6  Rx         07B9  8  2C 83 84 FF 0D 6F 7A 11 
   749)      9964.6  Rx         07B9  8  2D 00 0E 0D 65 18 63 84 
   750)      9964.7  Rx         07B9  8  2E FE 7C 83 20 5E 6D 07 
   751)      9965.0  Rx         07B9  8  2F 48 03 44 74 1B C1 08 
   752)      9965.0  Rx         07B9  8  20 08 20 F1 00 04 0D 35 
   753)      9965.1  Rx         07B9  8  21 7A 11 01 78 7C A9 00 
   754)      9965.1  Rx         07B9  8  22 34 18 29 A8 00 7A 16 
   755)      9965.2  Rx         07B9  8  23 01 62 18 E9 B0 20 7C 
   756)      9965.2  Rx         07B9  8  24 A5 48 30 7C 60 3C 30 
   757)      9965.3  Rx         07B9  8  25 7C DF 3C 30 7C 63 48 
   758)      9965.3  Rx         07B9  8  26 30 44 F5 7C 87 3C 30 
   759)      9965.4  Rx         07B9  8  27 7C AA 84 70 44 73 7D 
   760)      9965.5  Rx         07B9  8  28 80 53 96 74 A7 04 3F 
   761)      9965.6  Rx         07B9  8  29 7D 0C 51 D6 7F CC 39 
   762)      9965.6  Rx         07B9  8  2A D6 7D 08 00 50 7C 7F 
   763)      9965.7  Rx         07B9  8  2B 84 70 7D 08 80 70 7D 
   764)      9965.8  Rx         07B9  8  2C 8B 63 78 7D 00 FB 78 
   765)      9965.9  Rx         07B9  8  2D 7C C6 48 30 0D 0E 7A 
   766)      9965.9  Rx         07B9  8  2E 01 00 1C 04 50 19 6C 
   767)      9966.0  Rx         07B9  8  2F 84 FF 0D 05 7A 11 00 
   768)      9966.1  Rx         07B9  8  20 10 0D 0E 7A 01 00 0A 
   769)      9966.2  Rx         07B9  8  21 19 6C 84 FE 04 50 06 
   770)      9966.2  Rx         07B9  8  22 E0 74 63 04 3F 7D 00 
   771)      9966.3  Rx         07B9  8  23 53 96 7F E8 39 D6 7D 
   772)      9966.4  Rx         07B9  8  24 48 51 D6 03 0E 7C 0A 
   773)      9966.4  Rx         07B9  8  25 00 50 6D 00 7C 07 1B 
   774)      9966.5  Rx         07B9  8  26 78 0D 7F 7A 01 00 1C 
   775)      9966.5  Rx         07B9  8  27 04 57 1B C8 84 FF 0D 
   776)      9966.6  Rx         07B9  8  28 75 7A 11 00 10 0D 7F 
   777)      9966.6  Rx         07B9  8  29 7A 01 00 0A 1B C8 84 
   778)      9966.6  Rx         07B9  8  2A FE 04 57 06 F7 7D 6B 
   779)      9966.7  Rx         07B9  8  2B 80 70 7F CB 5B 78 7C 
   780)      9966.7  Rx         07B9  8  2C 6B 30 16 7C AB 31 D6 
   781)      9966.7  Rx         07B9  8  2D 0D 37 7A 10 01 72 7A 
   782)      9966.8  Rx         07B9  8  2E 12 01 84 03 34 48 03 
   783)      9966.8  Rx         07B9  8  2F 78 00 00 AA 2A 06 7A 
   784)      9966.9  Rx         07B9  8  20 02 00 0A 48 1F 7F FF 
   785)      9966.9  Rx         07B9  8  21 33 96 7F EA 00 34 70 
   786)      9967.0  Rx         07B9  8  22 0A 98 00 7A 02 00 9A 
   787)      9967.0  Rx         07B9  8  23 7C FF 18 50 7F E4 84 
   788)      9967.1  Rx         07B9  8  24 70 77 EB 04 3F 48 13 
   789)      9967.1  Rx         07B9  8  25 7D 27 23 96 7C 05 84 
   790)      9967.1  Rx         07B9  8  26 70 7F C9 21 D6 03 16 
   791)      9967.2  Rx         07B9  8  27 06 E7 7F C9 59 D6 6D 
   792)      9967.2  Rx         07B9  8  28 07 44 57 0D 7E 7A 01 
   793)      9967.3  Rx         07B9  8  29 00 16 04 F7 18 C9 84 
   794)      9967.3  Rx         07B9  8  2A FF 0D 7F 7A 11 00 0A 
   795)      9967.3  Rx         07B9  8  2B 0D 7E 7A 11 01 1C 06 
   796)      9967.4  Rx         07B9  8  2C E7 74 00 04 3F 7D 27 
   797)      9967.4  Rx         07B9  8  2D 23 96 7C A9 21 D6 03 
   798)      9967.4  Rx         07B9  8  2E 14 06 57 7C A9 59 D6 
   799)      9967.5  Rx         07B9  8  2F 6D 07 44 07 0D 75 7A 
   800)      9967.5  Rx         07B9  8  20 01 00 1A 04 F7 18 89 
   801)      9967.6  Rx         07B9  8  21 84 FF 0D 7F 7A 11 00 
   802)      9967.6  Rx         07B9  8  22 0E 0D 75 19 29 84 FE 
   803)      9967.6  Rx         07B9  8  23 7C 89 20 5E 6D 06 44 
   804)      9967.7  Rx         07B9  8  24 64 1B C1 08 08 20 F1 
   805)      9967.7  Rx         07B9  8  25 00 04 7A 10 00 C2 0D 
   806)      9967.8  Rx         07B9  8  26 46 7A 01 00 BC 48 04 
   807)      9967.8  Rx         07B9  8  27 48 03 1B C1 08 08 20 
   808)      9967.9  Rx         07B9  8  28 F1 00 04 7F FF 50 30 
   809)      9967.9  Rx         07B9  8  29 18 EA B0 20 00 00 00 
   810)      9983.7  Rx         0729  8  02 76 0A 00 00 00 00 00 
   811)     10055.8  Rx         07B9  8  12 02 36 0B 7F E5 84 70 
   812)     10056.6  Rx         0729  8  30 00 00 00 00 00 00 00 
   813)     10071.0  Rx         07B9  8  21 7C 66 3C 30 77 E9 04 
   814)     10071.1  Rx         07B9  8  22 3F 7D 06 2B 96 7C 63 
   815)     10071.2  Rx         07B9  8  23 50 30 7C 87 3C 30 7D 
   816)     10071.3  Rx         07B9  8  24 68 29 D6 44 37 7D 6B 
   817)     10071.3  Rx         07B9  8  25 30 50 7C 68 49 D6 7D 
   818)     10071.4  Rx         07B9  8  26 6B 80 70 7C E6 84 70 
   819)     10071.5  Rx         07B9  8  27 03 0E 7C C6 5B 78 7C 
   820)     10071.6  Rx         07B9  8  28 80 50 30 0D 63 7A 01 
   821)     10071.6  Rx         07B9  8  29 00 1C 04 F6 1B C8 84 
   822)     10071.7  Rx         07B9  8  2A FF 0D 6F 7A 11 00 10 
   823)     10071.8  Rx         07B9  8  2B 0D 63 7A 01 00 0A 1B 
   824)     10072.1  Rx         07B9  8  2C C8 84 FE 04 F6 7C 83 
   825)     10072.2  Rx         07B9  8  2D 30 50 74 E6 04 3F 7D 
   826)     10072.2  Rx         07B9  8  2E 44 2B 96 7C EA 29 D6 
   827)     10072.3  Rx         07B9  8  2F 7C 6A 49 D6 07 47 7D 
   828)     10072.3  Rx         07B9  8  20 4B 53 78 6D 07 44 67 
   829)     10072.4  Rx         07B9  8  21 0D 73 7A 01 00 1C 04 
   830)     10072.4  Rx         07B9  8  22 F7 19 6A 84 FF 0D 7F 
   831)     10072.5  Rx         07B9  8  23 7A 11 00 10 0D 73 7A 
   832)     10072.5  Rx         07B9  8  24 01 00 0A 19 6A 84 FE 
   833)     10072.5  Rx         07B9  8  25 04 F7 6D 0E 06 37 01 
   834)     10072.6  Rx         07B9  8  26 54 7D 63 F3 78 7D 2B 
   835)     10072.6  Rx         07B9  8  27 4B 78 79 FF FE D0 48 
   836)     10072.7  Rx         07B9  8  28 14 48 03 79 FF FF 48 
   837)     10072.7  Rx         07B9  8  29 18 EB 84 FF 48 03 01 
   838)     10072.7  Rx         07B9  8  2A 74 79 FF FF 3C 18 C9 
   839)     10072.8  Rx         07B9  8  2B 84 FE 04 F7 79 FF FE 
   840)     10072.8  Rx         07B9  8  2C E2 7C 86 48 30 18 EB 
   841)     10072.8  Rx         07B9  8  2D 84 FF 0D 56 7A 00 FE 
   842)     10072.9  Rx         07B9  8  2E 76 01 74 48 03 79 FF 
   843)     10072.9  Rx         07B9  8  2F FF 1C 00 00 00 00 00 
   844)     10073.0  Rx         07B9  8  20 00 00 00 18 21 06 F0 
   845)     10073.0  Rx         07B9  8  21 C0 63 1B C1 09 08 22 
   846)     10073.0  Rx         07B9  8  22 06 7A 01 00 BE C0 74 
   847)     10073.1  Rx         07B9  8  23 22 07 7A 01 00 BE 22 
   848)     10073.1  Rx         07B9  8  24 36 7A 12 01 34 22 37 
   849)     10073.2  Rx         07B9  8  25 7A 12 00 B2 22 17 7A 
   850)     10073.2  Rx         07B9  8  26 12 00 FE 22 16 7A 12 
   851)     10073.2  Rx         07B9  8  27 00 A6 C2 F3 C2 E4 C3 
   852)     10073.3  Rx         07B9  8  28 63 7C 1E F8 50 51 64 
   853)     10073.3  Rx         07B9  8  29 00 0C 7C 09 FE 70 7D 
   854)     10073.4  Rx         07B9  8  2A 27 02 78 7C E9 38 50 
   855)     10073.4  Rx         07B9  8  2B 2B F7 7A 01 00 90 0C 
   856)     10073.4  Rx         07B9  8  2C EF 7A 11 00 F4 01 EF 
   857)     10073.5  Rx         07B9  8  2D 48 06 C1 33 C1 74 0C 
   858)     10073.5  Rx         07B9  8  2E 73 7A 12 00 B6 2A 03 
   859)     10073.6  Rx         07B9  8  2F 7C 06 58 50 7C 8B 30 
   860)     10073.6  Rx         07B9  8  20 50 7C E4 00 9E 2A 07 
   861)     10073.6  Rx         07B9  8  21 7A 10 00 F6 48 06 D2 
   862)     10073.7  Rx         07B9  8  22 F5 D1 65 D3 75 18 C7 
   863)     10073.7  Rx         07B9  8  23 84 FF 70 67 E7 FF 70 
   864)     10073.8  Rx         07B9  8  24 7F C7 FE 0D 36 7A 11 
   865)     10073.8  Rx         07B9  8  25 00 20 C2 45 18 84 84 
   866)     10073.8  Rx         07B9  8  26 FF 6C 17 01 40 18 C7 
   867)     10073.9  Rx         07B9  8  27 84 FF 18 84 84 FF 0D 
   868)     10073.9  Rx         07B9  8  28 36 7A 01 FF F2 D3 75 
   869)     10074.0  Rx         07B9  8  29 D2 05 48 36 01 53 D0 
   870)     10074.0  Rx         07B9  8  2A 65 2A 07 7A 00 00 14 
   871)     10074.0  Rx         07B9  8  2B C2 65 18 E5 C0 01 20 
   872)     10074.1  Rx         07B9  8  2C 06 68 17 D2 63 44 57 
   873)     10074.1  Rx         07B9  8  2D D3 73 1B C1 08 08 20 
   874)     10074.2  Rx         07B9  8  2E F1 00 04 1B C1 08 08 
   875)     10074.2  Rx         07B9  8  2F 01 43 20 F1 00 04 2A 
   876)     10074.2  Rx         07B9  8  20 00 7A 01 00 9A 7D 7E 
   877)     10074.3  Rx         07B9  8  21 3C 30 48 10 C1 33 7C 
   878)     10074.3  Rx         07B9  8  22 07 38 30 18 E7 84 FF 
   879)     10074.4  Rx         07B9  8  23 7C EB 58 38 7C EB 00 
   880)     10074.4  Rx         07B9  8  24 D0 7D 6B 38 38 C1 74 
   881)     10074.4  Rx         07B9  8  25 7D 6B 00 34 0C 73 19 
   882)     10074.5  Rx         07B9  8  26 6B 84 E0 7D 6B FC 70 
   883)     10074.5  Rx         07B9  8  27 7D 6B F3 78 7A 02 FF 
   884)     10074.6  Rx         07B9  8  28 52 7C EB 32 14 D1 35 
   885)     10074.6  Rx         07B9  8  29 D2 F5 D3 75 00 00 00 
   886)     10090.6  Rx         0729  8  02 76 0B 00 00 00 00 00 
   887)     10160.6  Rx         07B9  8  12 02 36 0C 79 FF FF 8E 
   888)     10161.4  Rx         0729  8  30 00 00 00 00 00 00 00 
   889)     10176.1  Rx         07B9  8  21 22 16 7A 02 FF A4 C2 
   890)     10176.1  Rx         07B9  8  22 73 C1 F3 C3 03 D1 F5 
   891)     10176.2  Rx         07B9  8  23 D0 65 D2 75 C1 64 C1 
   892)     10176.2  Rx         07B9  8  24 73 D3 05 46 67 01 53 
   893)     10176.3  Rx         07B9  8  25 D1 75 79 FF FF 88 71 
   894)     10176.3  Rx         07B9  8  26 60 00 00 79 FF FF 10 
   895)     10176.3  Rx         07B9  8  27 22 37 7A 02 FF 7A C1 
   896)     10176.4  Rx         07B9  8  28 73 C1 64 0C 67 7A 12 
   897)     10176.5  Rx         07B9  8  29 FF 70 70 60 E0 05 1C 
   898)     10176.6  Rx         07B9  8  2A 63 B2 50 79 FF FF 64 
   899)     10176.6  Rx         07B9  8  2B 00 37 48 16 D2 F5 D1 
   900)     10176.7  Rx         07B9  8  2C 65 D3 75 79 FF FF 0C 
   901)     10176.7  Rx         07B9  8  2D 7A 12 FE E2 7C DE 3C 
   902)     10176.8  Rx         07B9  8  2E 30 04 7F 48 10 42 70 
   903)     10176.8  Rx         07B9  8  2F 18 00 84 FF 46 60 7C 
   904)     10176.8  Rx         07B9  8  20 E0 00 D0 46 07 7C E7 
   905)     10176.9  Rx         07B9  8  21 00 34 18 E7 84 E0 69 
   906)     10176.9  Rx         07B9  8  22 F7 7C E6 F3 78 79 FF 
   907)     10177.0  Rx         07B9  8  23 FE BA 18 21 06 B8 00 
   908)     10177.0  Rx         07B9  8  24 80 54 61 00 3C 54 01 
   909)     10177.0  Rx         07B9  8  25 00 4C 54 81 00 38 18 
   910)     10177.1  Rx         07B9  8  26 61 80 3C 18 81 80 28 
   911)     10177.1  Rx         07B9  8  27 78 00 12 C3 18 81 80 
   912)     10177.2  Rx         07B9  8  28 18 18 61 80 38 78 00 
   913)     10177.2  Rx         07B9  8  29 12 B7 18 81 80 18 18 
   914)     10177.2  Rx         07B9  8  2A A1 80 08 18 61 80 28 
   915)     10177.3  Rx         07B9  8  2B 79 FF FE 27 78 00 11 
   916)     10177.3  Rx         07B9  8  2C 83 50 01 00 4C 00 90 
   917)     10177.4  Rx         07B9  8  2D 18 21 80 48 00 04 44 
   918)     10177.4  Rx         07B9  8  2E 00 18 21 06 B8 00 80 
   919)     10177.4  Rx         07B9  8  2F 54 61 00 3C 54 01 00 
   920)     10177.5  Rx         07B9  8  20 4C 54 81 00 38 18 61 
   921)     10177.5  Rx         07B9  8  21 80 3C 18 81 80 28 78 
   922)     10177.6  Rx         07B9  8  22 00 12 77 18 81 80 18 
   923)     10177.6  Rx         07B9  8  23 18 61 80 38 78 00 12 
   924)     10177.7  Rx         07B9  8  24 6B C7 71 18 81 80 18 
   925)     10177.7  Rx         07B9  8  25 18 E7 E0 01 18 A1 80 
   926)     10177.7  Rx         07B9  8  26 08 D7 71 18 61 80 28 
   927)     10177.8  Rx         07B9  8  27 79 FF FD D3 78 00 11 
   928)     10177.8  Rx         07B9  8  28 2F 50 01 00 4C 00 90 
   929)     10177.9  Rx         07B9  8  29 18 21 80 48 00 04 00 
   930)     10177.9  Rx         07B9  8  2A 00 00 00 00 00 00 00 
   931)     10177.9  Rx         07B9  8  2B 00 00 00 00 00 00 18 
   932)     10178.0  Rx         07B9  8  2C 21 06 B8 00 80 54 61 
   933)     10178.0  Rx         07B9  8  2D 00 3C 54 01 00 4C 54 
   934)     10178.1  Rx         07B9  8  2E 81 00 38 18 61 80 3C 
   935)     10178.1  Rx         07B9  8  2F 18 81 80 28 78 00 12 
   936)     10178.1  Rx         07B9  8  20 17 18 61 80 38 18 81 
   937)     10178.2  Rx         07B9  8  21 80 18 78 00 12 0B CA 
   938)     10178.2  Rx         07B9  8  22 71 22 07 7A 11 00 32 
   939)     10178.2  Rx         07B9  8  23 CB 61 C7 71 18 61 80 
   940)     10178.3  Rx         07B9  8  24 28 7C C7 3A 78 7C C7 
   941)     10178.3  Rx         07B9  8  25 00 D0 46 67 7C E7 00 
   942)     10178.4  Rx         07B9  8  26 34 18 E7 84 E0 69 F7 
   943)     10178.4  Rx         07B9  8  27 DB 71 78 00 10 C1 50 
   944)     10178.5  Rx         07B9  8  28 01 00 4C 00 90 18 21 
   945)     10178.5  Rx         07B9  8  29 80 48 00 04 C6 61 22 
   946)     10178.5  Rx         07B9  8  2A 06 7A 11 00 32 C7 71 
   947)     10178.6  Rx         07B9  8  2B CB 61 18 61 80 18 7C 
   948)     10178.6  Rx         07B9  8  2C C6 3A 78 7C E6 00 D0 
   949)     10178.7  Rx         07B9  8  2D 46 67 7C E7 00 34 18 
   950)     10178.7  Rx         07B9  8  2E E7 84 E0 69 F7 D7 71 
   951)     10178.7  Rx         07B9  8  2F 78 00 10 8B 50 01 00 
   952)     10178.8  Rx         07B9  8  20 4C 00 90 18 21 80 48 
   953)     10178.8  Rx         07B9  8  21 00 04 22 37 7A 02 00 
   954)     10178.9  Rx         07B9  8  22 16 22 16 7A 02 FF 94 
   955)     10178.9  Rx         07B9  8  23 70 60 E0 05 1C 63 B2 
   956)     10178.9  Rx         07B9  8  24 50 79 FF FF A6 22 36 
   957)     10179.0  Rx         07B9  8  25 7A 02 00 0E 22 17 7A 
   958)     10179.1  Rx         07B9  8  26 12 FF EC 79 FF FF AE 
   959)     10179.1  Rx         07B9  8  27 22 17 7A 12 FF 72 22 
   960)     10179.2  Rx         07B9  8  28 16 7A 12 FF A2 C9 61 
   961)     10179.2  Rx         07B9  8  29 CD 71 CB 01 00 00 00 
   962)     10195.7  Rx         0729  8  02 76 0C 00 00 00 00 00 
   963)     10262.3  Rx         07B9  8  12 02 36 0D 7C 86 38 16 
   964)     10263.1  Rx         0729  8  30 00 00 00 00 00 00 00 
   965)     10280.7  Rx         07B9  8  21 7C A6 39 D6 C8 31 CC 
   966)     10280.8  Rx         07B9  8  22 71 01 56 7C 67 1A 14 
   967)     10280.9  Rx         07B9  8  23 2A 04 C7 71 19 23 80 
   968)     10280.9  Rx         07B9  8  24 02 7C 0B 3A 78 55 21 
   969)     10280.9  Rx         07B9  8  25 00 10 7C 0B 00 D0 01 
   970)     10281.0  Rx         07B9  8  26 47 7D 60 00 38 7C 00 
   971)     10281.0  Rx         07B9  8  27 00 34 18 00 84 E0 69 
   972)     10281.1  Rx         07B9  8  28 F0 D3 01 7A 00 00 18 
   973)     10281.1  Rx         07B9  8  29 20 23 67 F4 7A 12 00 
   974)     10281.3  Rx         07B9  8  2A 0A 7C A6 0C 70 64 06 
   975)     10281.4  Rx         07B9  8  2B 7C 87 0C 70 D4 31 18 
   976)     10281.5  Rx         07B9  8  2C 87 AF 3F 7A 11 00 28 
   977)     10281.5  Rx         07B9  8  2D C4 51 18 A5 84 FF 2A 
   978)     10281.5  Rx         07B9  8  2E 06 6C 17 01 53 18 E4 
   979)     10281.6  Rx         07B9  8  2F D0 01 6C 16 7C E4 38 
   980)     10281.6  Rx         07B9  8  20 1E 18 A5 84 FF 18 87 
   981)     10281.7  Rx         07B9  8  21 AF 3F 7A 01 FF E8 D4 
   982)     10281.7  Rx         07B9  8  22 31 18 E5 C0 7F 70 05 
   983)     10281.7  Rx         07B9  8  23 A8 40 7A 12 00 12 D5 
   984)     10281.8  Rx         07B9  8  24 71 18 61 80 08 48 37 
   985)     10281.8  Rx         07B9  8  25 D2 71 79 FF FE EE 67 
   986)     10281.9  Rx         07B9  8  26 87 7A 02 FF F0 2A 06 
   987)     10281.9  Rx         07B9  8  27 7A 12 FF EA 18 E7 80 
   988)     10281.9  Rx         07B9  8  28 40 18 E7 C4 80 79 FF 
   989)     10282.0  Rx         07B9  8  29 FF DE 00 00 18 21 06 
   990)     10282.0  Rx         07B9  8  2A C8 00 80 54 61 00 2C 
   991)     10282.1  Rx         07B9  8  2B DF 01 54 81 00 28 18 
   992)     10282.1  Rx         07B9  8  2C 61 80 2C 18 81 80 18 
   993)     10282.1  Rx         07B9  8  2D 78 00 10 99 18 61 80 
   994)     10282.2  Rx         07B9  8  2E 28 18 81 80 08 78 00 
   995)     10282.3  Rx         07B9  8  2F 10 8D C6 71 22 07 7A 
   996)     10282.4  Rx         07B9  8  20 11 00 16 18 61 80 18 
   997)     10282.4  Rx         07B9  8  21 78 00 0F 5D CF 01 00 
   998)     10282.5  Rx         07B9  8  22 90 18 21 80 38 00 04 
   999)     10282.5  Rx         07B9  8  23 C2 61 18 61 80 08 22 
  1000)     10282.6  Rx         07B9  8  24 06 7A 01 FF EA C7 31 
  1001)     10282.6  Rx         07B9  8  25 18 A7 84 FE C3 41 7C 
  1002)     10282.7  Rx         07B9  8  26 64 22 78 18 A3 CC FD 
  1003)     10282.7  Rx         07B9  8  27 D7 41 7A 02 00 16 0D 
  1004)     10282.7  Rx         07B9  8  28 67 7A 02 FF CA 70 60 
  1005)     10282.8  Rx         07B9  8  29 E0 05 1C 63 B2 50 79 
  1006)     10282.8  Rx         07B9  8  2A FF FF C2 22 36 7A 12 
  1007)     10282.9  Rx         07B9  8  2B 00 6A 22 16 7A 12 00 
  1008)     10282.9  Rx         07B9  8  2C 72 C4 51 C8 61 C9 71 
  1009)     10283.0  Rx         07B9  8  2D 06 56 C5 51 D8 61 0D 
  1010)     10283.0  Rx         07B9  8  2E 57 7A 00 00 0C 18 C6 
  1011)     10283.0  Rx         07B9  8  2F 84 FF 6C 17 D8 61 49 
  1012)     10283.1  Rx         07B9  8  20 F3 62 16 48 04 00 B3 
  1013)     10283.1  Rx         07B9  8  21 0D 75 7A 11 00 08 44 
  1014)     10283.2  Rx         07B9  8  22 64 06 57 68 16 6C 17 
  1015)     10283.2  Rx         07B9  8  23 7A 20 FF F2 18 86 C0 
  1016)     10283.3  Rx         07B9  8  24 7F 70 06 A8 40 7A 12 
  1017)     10283.3  Rx         07B9  8  25 00 0A D9 41 79 FF FF 
  1018)     10283.3  Rx         07B9  8  26 6C 67 84 7A 02 FF F8 
  1019)     10283.4  Rx         07B9  8  27 2A 07 7A 12 FF F2 18 
  1020)     10283.4  Rx         07B9  8  28 84 80 40 18 84 C4 80 
  1021)     10283.5  Rx         07B9  8  29 D9 41 79 FF FF 52 48 
  1022)     10283.5  Rx         07B9  8  2A 07 18 61 80 18 D9 71 
  1023)     10283.5  Rx         07B9  8  2B D8 71 79 FF FF 48 48 
  1024)     10283.6  Rx         07B9  8  2C 47 18 61 80 18 D6 71 
  1025)     10283.6  Rx         07B9  8  2D 79 FF FF 3C 00 00 00 
  1026)     10283.7  Rx         07B9  8  2E 00 18 21 06 C8 00 80 
  1027)     10283.7  Rx         07B9  8  2F 54 61 00 2C DF 01 54 
  1028)     10283.7  Rx         07B9  8  20 81 00 28 18 61 80 2C 
  1029)     10283.8  Rx         07B9  8  21 18 81 80 18 78 00 0F 
  1030)     10283.8  Rx         07B9  8  22 99 18 61 80 28 18 81 
  1031)     10283.9  Rx         07B9  8  23 80 08 78 00 0F 8D C6 
  1032)     10283.9  Rx         07B9  8  24 71 22 07 7A 01 00 22 
  1033)     10283.9  Rx         07B9  8  25 C2 71 22 07 7A 01 00 
  1034)     10284.0  Rx         07B9  8  26 1A 18 61 80 18 18 81 
  1035)     10284.0  Rx         07B9  8  27 80 08 78 00 0F F1 CF 
  1036)     10284.1  Rx         07B9  8  28 01 00 90 18 21 80 38 
  1037)     10284.1  Rx         07B9  8  29 00 04 CF 01 00 00 00 
  1038)     10300.4  Rx         0729  8  02 76 0D 00 00 00 00 00 
  1039)     10363.3  Rx         07B9  8  12 02 36 0E 00 90 48 13 
  1040)     10364.1  Rx         0729  8  30 00 00 00 00 00 00 00 
  1041)     10385.6  Rx         07B9  8  21 18 21 80 38 00 04 00 
  1042)     10385.7  Rx         07B9  8  22 00 00 00 00 00 18 21 
  1043)     10385.8  Rx         07B9  8  23 06 C8 00 80 54 61 00 
  1044)     10385.8  Rx         07B9  8  24 2C DF 01 54 81 00 28 
  1045)     10385.9  Rx         07B9  8  25 18 61 80 2C 18 81 80 
  1046)     10386.0  Rx         07B9  8  26 18 78 00 0F 39 18 61 
  1047)     10386.1  Rx         07B9  8  27 80 28 18 81 80 08 78 
  1048)     10386.2  Rx         07B9  8  28 00 0F 2D C6 71 22 07 
  1049)     10386.2  Rx         07B9  8  29 7A 01 00 22 C2 71 22 
  1050)     10386.5  Rx         07B9  8  2A 07 7A 01 00 1A 18 61 
  1051)     10386.5  Rx         07B9  8  2B 80 18 18 81 80 08 78 
  1052)     10386.6  Rx         07B9  8  2C 00 0F 91 CF 01 00 90 
  1053)     10386.6  Rx         07B9  8  2D 18 21 80 38 00 04 CF 
  1054)     10386.7  Rx         07B9  8  2E 01 00 90 2C 03 18 21 
  1055)     10386.7  Rx         07B9  8  2F 80 38 00 04 00 00 00 
  1056)     10386.7  Rx         07B9  8  20 00 00 00 18 21 06 C8 
  1057)     10386.8  Rx         07B9  8  21 00 80 54 61 00 2C DF 
  1058)     10386.8  Rx         07B9  8  22 01 54 81 00 28 18 61 
  1059)     10386.9  Rx         07B9  8  23 80 2C 18 81 80 18 78 
  1060)     10386.9  Rx         07B9  8  24 00 0E D9 18 61 80 28 
  1061)     10386.9  Rx         07B9  8  25 18 81 80 08 78 00 0E 
  1062)     10387.0  Rx         07B9  8  26 CD C6 71 22 07 7A 01 
  1063)     10387.0  Rx         07B9  8  27 00 22 C2 71 22 07 7A 
  1064)     10387.1  Rx         07B9  8  28 01 00 1A 18 61 80 18 
  1065)     10387.1  Rx         07B9  8  29 18 81 80 08 78 00 0F 
  1066)     10387.1  Rx         07B9  8  2A 31 CF 01 00 90 18 21 
  1067)     10387.2  Rx         07B9  8  2B 80 38 00 04 CF 01 00 
  1068)     10387.2  Rx         07B9  8  2C 90 2C 03 18 21 80 38 
  1069)     10387.3  Rx         07B9  8  2D 00 04 00 00 00 00 00 
  1070)     10387.3  Rx         07B9  8  2E 00 18 21 06 C8 00 80 
  1071)     10387.4  Rx         07B9  8  2F 54 61 00 2C DF 01 54 
  1072)     10387.4  Rx         07B9  8  20 81 00 28 18 61 80 2C 
  1073)     10387.5  Rx         07B9  8  21 18 81 80 18 78 00 0E 
  1074)     10387.5  Rx         07B9  8  22 79 18 61 80 28 18 81 
  1075)     10387.5  Rx         07B9  8  23 80 08 78 00 0E 6D C6 
  1076)     10387.6  Rx         07B9  8  24 71 22 07 7A 01 00 22 
  1077)     10387.6  Rx         07B9  8  25 C2 71 22 07 7A 01 00 
  1078)     10387.7  Rx         07B9  8  26 1A 18 61 80 18 18 81 
  1079)     10387.7  Rx         07B9  8  27 80 08 78 00 0E D1 CF 
  1080)     10387.7  Rx         07B9  8  28 01 00 90 18 21 80 38 
  1081)     10387.8  Rx         07B9  8  29 00 04 CF 01 00 90 48 
  1082)     10387.8  Rx         07B9  8  2A 13 18 21 80 38 00 04 
  1083)     10387.9  Rx         07B9  8  2B 00 00 00 00 00 00 18 
  1084)     10387.9  Rx         07B9  8  2C 21 06 E8 00 80 7C 67 
  1085)     10387.9  Rx         07B9  8  2D FC 70 48 36 D7 01 D2 
  1086)     10388.0  Rx         07B9  8  2E 61 D3 71 2A 03 7A 02 
  1087)     10388.0  Rx         07B9  8  2F 00 18 48 27 D2 71 18 
  1088)     10388.1  Rx         07B9  8  20 61 80 08 78 00 0C F1 
  1089)     10388.2  Rx         07B9  8  21 C7 01 00 90 21 71 00 
  1090)     10388.2  Rx         07B9  8  22 04 2A 07 49 E7 D4 71 
  1091)     10388.3  Rx         07B9  8  23 7A 12 00 0E 18 03 AB 
  1092)     10388.4  Rx         07B9  8  24 80 7A 12 00 28 00 33 
  1093)     10388.4  Rx         07B9  8  25 7C 67 00 34 18 C7 84 
  1094)     10388.5  Rx         07B9  8  26 FF 2A 06 7A 01 00 12 
  1095)     10388.6  Rx         07B9  8  27 42 63 18 E7 B0 1F D5 
  1096)     10388.7  Rx         07B9  8  28 31 D4 71 79 FF FF C4 
  1097)     10388.7  Rx         07B9  8  29 D5 31 79 FF FF BE 70 
  1098)     10388.8  Rx         07B9  8  2A 79 E7 00 79 FF FF BE 
  1099)     10388.8  Rx         07B9  8  2B 00 00 00 00 00 00 18 
  1100)     10388.9  Rx         07B9  8  2C 21 06 D8 00 80 01 17 
  1101)     10388.9  Rx         07B9  8  2D DB 01 18 81 80 08 18 
  1102)     10388.9  Rx         07B9  8  2E 67 06 18 01 73 78 00 
  1103)     10389.0  Rx         07B9  8  2F 0D AD C2 71 22 17 7A 
  1104)     10389.0  Rx         07B9  8  20 01 00 60 22 37 7A 12 
  1105)     10389.1  Rx         07B9  8  21 00 12 C4 71 2A 07 7A 
  1106)     10389.1  Rx         07B9  8  22 10 00 52 2B E7 7A 01 
  1107)     10389.1  Rx         07B9  8  23 00 1A CB 01 00 90 C3 
  1108)     10389.2  Rx         07B9  8  24 31 62 07 2A 03 2D F6 
  1109)     10389.2  Rx         07B9  8  25 7C 66 38 9E 18 21 80 
  1110)     10389.3  Rx         07B9  8  26 28 00 04 CB 01 00 90 
  1111)     10389.3  Rx         07B9  8  27 C3 31 18 A7 B0 1E 7C 
  1112)     10389.3  Rx         07B9  8  28 C3 00 D0 C5 71 46 63 
  1113)     10389.4  Rx         07B9  8  29 40 57 7C 63 00 00 00 
  1114)     10405.4  Rx         0729  8  02 76 0E 00 00 00 00 00 
  1115)     10464.1  Rx         07B9  8  12 02 36 0F 00 34 18 63 
  1116)     10464.9  Rx         0729  8  30 00 00 00 00 00 00 00 
  1117)     10470.7  Rx         07B9  8  21 84 E0 18 21 80 28 7C 
  1118)     10470.7  Rx         07B9  8  22 66 FC 70 7C 66 00 D0 
  1119)     10470.8  Rx         07B9  8  23 7C 67 3A 78 7C 67 32 
  1120)     10470.8  Rx         07B9  8  24 14 00 04 CB 01 00 90 
  1121)     10470.9  Rx         07B9  8  25 48 03 18 21 80 28 00 
  1122)     10470.9  Rx         07B9  8  26 04 00 00 00 00 00 00 
  1123)     10471.0  Rx         07B9  8  27 00 00 18 21 06 D8 00 
  1124)     10471.1  Rx         07B9  8  28 80 01 17 DB 01 18 81 
  1125)     10471.1  Rx         07B9  8  29 80 08 18 67 06 18 01 
  1126)     10471.1  Rx         07B9  8  2A 73 78 00 0D 1D 51 01 
  1127)     10471.2  Rx         07B9  8  2B 00 14 C2 31 C3 41 C4 
  1128)     10471.2  Rx         07B9  8  2C 51 7D 07 14 70 7D 08 
  1129)     10471.3  Rx         07B9  8  2D F0 70 78 00 0A 97 CB 
  1130)     10471.4  Rx         07B9  8  2E 01 00 90 18 21 80 28 
  1131)     10471.5  Rx         07B9  8  2F 00 04 00 00 00 00 00 
  1132)     10471.5  Rx         07B9  8  20 00 00 00 18 21 06 E8 
  1133)     10471.5  Rx         07B9  8  21 00 80 48 07 D7 01 2A 
  1134)     10471.6  Rx         07B9  8  22 03 D3 71 7A 12 00 3C 
  1135)     10471.6  Rx         07B9  8  23 48 36 7C 67 00 34 D2 
  1136)     10471.7  Rx         07B9  8  24 61 49 E5 18 C7 84 FF 
  1137)     10472.0  Rx         07B9  8  25 D4 51 73 E6 9F FF 7A 
  1138)     10472.1  Rx         07B9  8  26 12 00 38 2A 06 7A 12 
  1139)     10472.2  Rx         07B9  8  27 00 52 42 63 18 E7 B0 
  1140)     10472.3  Rx         07B9  8  28 1F D5 31 D4 71 18 61 
  1141)     10472.3  Rx         07B9  8  29 80 08 78 00 0B 93 C7 
  1142)     10472.4  Rx         07B9  8  2A 01 00 90 21 71 00 04 
  1143)     10472.4  Rx         07B9  8  2B 48 27 18 61 80 08 D2 
  1144)     10472.5  Rx         07B9  8  2C 71 78 00 0B 7F C7 01 
  1145)     10472.6  Rx         07B9  8  2D 00 90 21 71 00 04 7C 
  1146)     10472.7  Rx         07B9  8  2E 66 0C 70 18 E7 B0 1F 
  1147)     10472.7  Rx         07B9  8  2F 2E 13 D4 71 44 63 D5 
  1148)     10472.7  Rx         07B9  8  20 31 18 61 80 08 78 00 
  1149)     10472.8  Rx         07B9  8  21 0B 5F C7 01 00 90 21 
  1150)     10472.8  Rx         07B9  8  22 71 00 04 D5 31 79 FF 
  1151)     10472.9  Rx         07B9  8  23 FF BA 00 00 00 00 00 
  1152)     10472.9  Rx         07B9  8  24 00 00 00 00 00 00 00 
  1153)     10473.0  Rx         07B9  8  25 18 21 06 D8 C0 63 1B 
  1154)     10473.0  Rx         07B9  8  26 21 09 0C 22 06 7A 01 
  1155)     10473.1  Rx         07B9  8  27 00 EE C0 74 22 07 7A 
  1156)     10473.1  Rx         07B9  8  28 01 00 F0 22 36 7A 12 
  1157)     10473.1  Rx         07B9  8  29 01 F0 22 37 7A 12 00 
  1158)     10473.2  Rx         07B9  8  2A E4 22 17 7A 12 01 A2 
  1159)     10473.2  Rx         07B9  8  2B 22 16 7A 12 00 D8 C2 
  1160)     10473.3  Rx         07B9  8  2C F3 C2 D4 51 03 00 10 
  1161)     10473.3  Rx         07B9  8  2D 7C 1D F8 50 51 23 00 
  1162)     10473.3  Rx         07B9  8  2E 14 7C 06 FE 70 51 44 
  1163)     10473.4  Rx         07B9  8  2F 00 10 7C C7 02 78 51 
  1164)     10473.4  Rx         07B9  8  20 64 00 14 06 67 70 07 
  1165)     10473.4  Rx         07B9  8  21 98 3F 7A 01 00 BA 0C 
  1166)     10473.5  Rx         07B9  8  22 DF 7A 11 01 A2 01 DF 
  1167)     10473.5  Rx         07B9  8  23 71 00 00 00 71 20 00 
  1168)     10473.6  Rx         07B9  8  24 00 C1 33 C1 74 0C 73 
  1169)     10473.6  Rx         07B9  8  25 7A 12 01 16 7C EB 48 
  1170)     10473.6  Rx         07B9  8  26 10 7C CA 41 10 2A 03 
  1171)     10473.7  Rx         07B9  8  27 7A 12 00 0C 7C E9 58 
  1172)     10473.7  Rx         07B9  8  28 10 7C C8 51 10 2A 06 
  1173)     10473.8  Rx         07B9  8  29 7A 10 01 9A 48 04 D2 
  1174)     10473.8  Rx         07B9  8  2A F5 D1 45 D4 65 D5 75 
  1175)     10473.8  Rx         07B9  8  2B 1B A7 94 FF 7F 86 01 
  1176)     10473.9  Rx         07B9  8  2C D4 18 9C AF 0F 7A 11 
  1177)     10473.9  Rx         07B9  8  2D 00 F0 18 1C AF 0F 7A 
  1178)     10474.0  Rx         07B9  8  2E 12 01 FC C2 45 18 84 
  1179)     10474.1  Rx         07B9  8  2F 84 FF 78 00 00 0C 18 
  1180)     10474.1  Rx         07B9  8  20 0A AF 0F 7A 12 01 32 
  1181)     10474.1  Rx         07B9  8  21 7C EB FC 70 7C E3 08 
  1182)     10474.2  Rx         07B9  8  22 70 7C C0 08 70 02 41 
  1183)     10474.2  Rx         07B9  8  23 7D 66 03 78 01 37 18 
  1184)     10474.2  Rx         07B9  8  24 84 84 FF 19 67 94 FF 
  1185)     10474.3  Rx         07B9  8  25 7D 46 01 D4 18 8A AF 
  1186)     10474.3  Rx         07B9  8  26 0F 7A 01 FF D4 D5 75 
  1187)     10474.4  Rx         07B9  8  27 D4 65 48 37 55 25 00 
  1188)     10474.4  Rx         07B9  8  28 08 D0 75 01 53 1B 21 
  1189)     10474.4  Rx         07B9  8  29 08 0C 18 21 00 00 00 
  1190)     10490.3  Rx         0729  8  02 76 0F 00 00 00 00 00 
  1191)     10565.1  Rx         07B9  8  12 02 36 10 80 28 00 04 
  1192)     10565.9  Rx         0729  8  30 00 00 00 00 00 00 00 
  1193)     10575.7  Rx         07B9  8  21 1B 21 08 0C 01 43 18 
  1194)     10575.8  Rx         07B9  8  22 21 80 28 00 04 2A 00 
  1195)     10575.8  Rx         07B9  8  23 7A 01 01 2A 1B A7 84 
  1196)     10575.8  Rx         07B9  8  24 E0 7D 66 3C 30 2A 0D 
  1197)     10575.9  Rx         07B9  8  25 7D 59 EC 30 7D 4C 3C 
  1198)     10575.9  Rx         07B9  8  26 30 1B 87 B0 1F 48 0E 
  1199)     10576.0  Rx         07B9  8  27 7D 40 08 70 48 1B 42 
  1200)     10576.0  Rx         07B9  8  28 C0 7D 8C F0 1E 7F 7A 
  1201)     10576.1  Rx         07B9  8  29 E8 30 44 06 7F 7D 38 
  1202)     10576.3  Rx         07B9  8  2A 30 7C C6 C8 1E 7F BD 
  1203)     10576.4  Rx         07B9  8  2B F0 1E 48 0C C1 33 7F 
  1204)     10576.4  Rx         07B9  8  2C 9C D0 1E 1B BD 94 FF 
  1205)     10576.5  Rx         07B9  8  2D 7F 9C 01 D4 7F A7 58 
  1206)     10576.5  Rx         07B9  8  2E 38 7F 80 50 38 7D 8A 
  1207)     10576.6  Rx         07B9  8  2F 63 78 44 70 7C E0 00 
  1208)     10576.6  Rx         07B9  8  20 D0 46 07 7C E7 00 34 
  1209)     10576.6  Rx         07B9  8  21 18 E7 84 E0 69 F7 7C 
  1210)     10576.7  Rx         07B9  8  22 EB 33 78 C1 74 0C 73 
  1211)     10576.7  Rx         07B9  8  23 7A 02 FE F2 7C EB 48 
  1212)     10576.8  Rx         07B9  8  24 14 7C CA 41 14 D1 35 
  1213)     10576.8  Rx         07B9  8  25 D2 F5 D4 65 D5 75 48 
  1214)     10576.9  Rx         07B9  8  26 34 18 86 AF 1F D0 45 
  1215)     10576.9  Rx         07B9  8  27 7A 01 00 1E C2 45 18 
  1216)     10576.9  Rx         07B9  8  28 E3 C0 01 7C C0 F8 70 
  1217)     10577.0  Rx         07B9  8  29 68 17 68 16 44 07 20 
  1218)     10577.0  Rx         07B9  8  2A 04 44 37 D4 65 D5 75 
  1219)     10577.1  Rx         07B9  8  2B D2 45 1B 21 08 0C 01 
  1220)     10577.1  Rx         07B9  8  2C 53 18 21 80 28 00 04 
  1221)     10577.1  Rx         07B9  8  2D 22 16 7A 02 FF 30 C2 
  1222)     10577.2  Rx         07B9  8  2E 73 C3 03 C1 F3 D0 65 
  1223)     10577.2  Rx         07B9  8  2F D1 F5 D2 75 C1 73 D3 
  1224)     10577.3  Rx         07B9  8  20 05 C1 04 C5 63 C4 43 
  1225)     10577.3  Rx         07B9  8  21 46 07 D4 45 D5 65 D1 
  1226)     10577.3  Rx         07B9  8  22 75 01 53 79 FF FF 0C 
  1227)     10577.4  Rx         07B9  8  23 18 8B AC FE 7A 01 FE 
  1228)     10577.4  Rx         07B9  8  24 CE 79 FF FE F2 71 40 
  1229)     10577.5  Rx         07B9  8  25 00 00 71 60 00 00 79 
  1230)     10577.5  Rx         07B9  8  26 FF FE 64 22 37 7A 02 
  1231)     10577.5  Rx         07B9  8  27 FE EE C1 73 C1 64 0C 
  1232)     10577.6  Rx         07B9  8  28 67 7A 12 FE E4 70 60 
  1233)     10577.6  Rx         07B9  8  29 E0 05 1C 63 B2 60 79 
  1234)     10577.7  Rx         07B9  8  2A FF FE D8 18 E7 B0 00 
  1235)     10577.7  Rx         07B9  8  2B 7C C6 01 90 48 14 D2 
  1236)     10577.7  Rx         07B9  8  2C F5 D1 45 D4 65 D5 75 
  1237)     10577.8  Rx         07B9  8  2D 79 FF FE 62 7A 12 FE 
  1238)     10577.8  Rx         07B9  8  2E 2E 1B A7 84 E0 7D 26 
  1239)     10577.9  Rx         07B9  8  2F 3C 30 2A 0D 7D 0C EC 
  1240)     10577.9  Rx         07B9  8  20 30 7D 1E 3C 30 1B 87 
  1241)     10577.9  Rx         07B9  8  21 B0 1F 48 0B 7D 00 08 
  1242)     10578.0  Rx         07B9  8  22 70 48 1A 42 C0 7F 59 
  1243)     10578.0  Rx         07B9  8  23 E8 30 44 06 7F 5D 38 
  1244)     10578.1  Rx         07B9  8  24 30 7F DE D8 1E 48 0C 
  1245)     10578.1  Rx         07B9  8  25 7C C6 60 1E 04 7F 7F 
  1246)     10578.2  Rx         07B9  8  26 9C C8 1E 7F BD D8 1E 
  1247)     10578.2  Rx         07B9  8  27 1B BD 94 FF 7F 9C 01 
  1248)     10578.2  Rx         07B9  8  28 D4 7F A7 48 38 7F 80 
  1249)     10578.3  Rx         07B9  8  29 40 38 02 E0 44 70 7C 
  1250)     10578.3  Rx         07B9  8  2A E0 00 D0 46 07 7C E7 
  1251)     10578.4  Rx         07B9  8  2B 00 34 18 E7 84 E0 69 
  1252)     10578.4  Rx         07B9  8  2C F7 7C E9 33 78 79 FF 
  1253)     10578.4  Rx         07B9  8  2D FD C4 18 9D AC FE 7A 
  1254)     10578.5  Rx         07B9  8  2E 01 FE 04 79 FF FE E4 
  1255)     10578.5  Rx         07B9  8  2F 44 00 18 21 06 90 00 
  1256)     10578.6  Rx         07B9  8  20 80 54 C1 00 54 54 01 
  1257)     10578.6  Rx         07B9  8  21 00 74 54 A1 00 50 57 
  1258)     10578.7  Rx         07B9  8  22 E1 00 6C 54 61 00 58 
  1259)     10578.7  Rx         07B9  8  23 1B E1 80 38 54 81 00 
  1260)     10578.7  Rx         07B9  8  24 5C 18 61 80 58 01 F4 
  1261)     10578.8  Rx         07B9  8  25 78 00 0C D1 18 81 80 
  1262)     10578.8  Rx         07B9  8  26 20 18 61 80 50 78 00 
  1263)     10578.9  Rx         07B9  8  27 0C C5 18 81 80 20 18 
  1264)     10578.9  Rx         07B9  8  28 A1 80 08 01 F3 79 FF 
  1265)     10578.9  Rx         07B9  8  29 FD 07 78 00 00 00 00 
  1266)     10595.3  Rx         0729  8  02 76 10 00 00 00 00 00 
  1267)     10667.4  Rx         07B9  8  12 02 36 11 0A B3 50 01 
  1268)     10668.2  Rx         0729  8  30 00 00 00 00 00 00 00 
  1269)     10680.6  Rx         07B9  8  21 00 74 00 90 53 E1 00 
  1270)     10680.6  Rx         07B9  8  22 6C 18 21 80 70 00 04 
  1271)     10680.7  Rx         07B9  8  23 44 00 18 21 06 90 00 
  1272)     10680.7  Rx         07B9  8  24 80 54 C1 00 54 54 01 
  1273)     10680.8  Rx         07B9  8  25 00 74 54 A1 00 50 57 
  1274)     10680.8  Rx         07B9  8  26 E1 00 6C 54 61 00 58 
  1275)     10680.8  Rx         07B9  8  27 1B E1 80 38 54 81 00 
  1276)     10680.9  Rx         07B9  8  28 5C 18 61 80 58 01 F4 
  1277)     10680.9  Rx         07B9  8  29 78 00 0C 75 18 81 80 
  1278)     10681.0  Rx         07B9  8  2A 20 18 61 80 50 78 00 
  1279)     10681.0  Rx         07B9  8  2B 0C 69 C9 71 18 81 80 
  1280)     10681.1  Rx         07B9  8  2C 20 18 E7 E0 01 18 A1 
  1281)     10681.1  Rx         07B9  8  2D 80 08 D9 71 01 F3 79 
  1282)     10681.2  Rx         07B9  8  2E FF FC A3 78 00 0A 4F 
  1283)     10681.5  Rx         07B9  8  2F 50 01 00 74 00 90 53 
  1284)     10681.6  Rx         07B9  8  20 E1 00 6C 18 21 80 70 
  1285)     10681.6  Rx         07B9  8  21 00 04 00 00 00 00 00 
  1286)     10681.7  Rx         07B9  8  22 00 00 00 00 00 18 21 
  1287)     10681.7  Rx         07B9  8  23 06 88 00 80 54 61 00 
  1288)     10681.8  Rx         07B9  8  24 58 54 01 00 7C 54 81 
  1289)     10681.8  Rx         07B9  8  25 00 5C 54 A1 00 50 54 
  1290)     10681.9  Rx         07B9  8  26 C1 00 54 18 61 80 58 
  1291)     10681.9  Rx         07B9  8  27 18 81 80 38 1B 81 09 
  1292)     10682.0  Rx         07B9  8  28 68 78 00 0C 0B 18 61 
  1293)     10682.0  Rx         07B9  8  29 80 50 18 81 80 20 78 
  1294)     10682.0  Rx         07B9  8  2A 00 0B FF CE 71 22 07 
  1295)     10682.1  Rx         07B9  8  2B 7A 11 00 36 CF 61 C9 
  1296)     10682.1  Rx         07B9  8  2C 71 18 61 80 38 7C C7 
  1297)     10682.2  Rx         07B9  8  2D 3A 78 7C C7 00 D0 46 
  1298)     10682.2  Rx         07B9  8  2E 67 7C E7 00 34 18 E7 
  1299)     10682.2  Rx         07B9  8  2F 84 E0 69 F7 DF 71 78 
  1300)     10682.3  Rx         07B9  8  20 00 09 D5 50 01 00 7C 
  1301)     10682.3  Rx         07B9  8  21 00 90 1B 81 08 68 18 
  1302)     10682.4  Rx         07B9  8  22 21 80 78 00 04 C8 61 
  1303)     10682.4  Rx         07B9  8  23 22 06 7A 11 00 36 C9 
  1304)     10682.4  Rx         07B9  8  24 71 CF 61 18 61 80 20 
  1305)     10682.5  Rx         07B9  8  25 7C C6 3A 78 7C E6 00 
  1306)     10682.5  Rx         07B9  8  26 D0 46 67 7C E7 00 34 
  1307)     10682.6  Rx         07B9  8  27 18 E7 84 E0 69 F7 D9 
  1308)     10682.6  Rx         07B9  8  28 71 78 00 09 9B 50 01 
  1309)     10682.6  Rx         07B9  8  29 00 7C 00 90 1B 81 08 
  1310)     10682.7  Rx         07B9  8  2A 68 18 21 80 78 00 04 
  1311)     10682.7  Rx         07B9  8  2B 22 37 7A 02 00 16 22 
  1312)     10682.8  Rx         07B9  8  2C 16 7A 02 FF 8C 70 60 
  1313)     10682.8  Rx         07B9  8  2D E0 05 1C 63 B2 60 79 
  1314)     10682.8  Rx         07B9  8  2E FF FF 9E 22 36 7A 02 
  1315)     10682.9  Rx         07B9  8  2F 00 0E 22 17 7A 12 FF 
  1316)     10682.9  Rx         07B9  8  20 EC 79 FF FF AA 22 17 
  1317)     10682.9  Rx         07B9  8  21 7A 12 FF 6A 22 16 7A 
  1318)     10683.0  Rx         07B9  8  22 12 FF 9E CD 71 50 61 
  1319)     10683.0  Rx         07B9  8  23 00 48 53 A1 00 4C CC 
  1320)     10683.1  Rx         07B9  8  24 01 7D 47 18 16 7C 9D 
  1321)     10683.1  Rx         07B9  8  25 00 16 7D 67 19 D6 7C 
  1322)     10683.2  Rx         07B9  8  26 BD 01 D6 7F DD 38 16 
  1323)     10683.2  Rx         07B9  8  27 7F FD 39 D6 7C EB 28 
  1324)     10683.2  Rx         07B9  8  28 14 7C CA 21 14 7D 40 
  1325)     10683.3  Rx         07B9  8  29 18 16 7D 60 19 D6 0D 
  1326)     10683.3  Rx         07B9  8  2A 64 7A 11 00 DA 7A 02 
  1327)     10683.4  Rx         07B9  8  2B 00 0A 0D 75 7A 11 00 
  1328)     10683.4  Rx         07B9  8  2C D0 48 0C 48 0D 01 74 
  1329)     10683.5  Rx         07B9  8  2D 48 05 7C A5 F8 14 7C 
  1330)     10683.5  Rx         07B9  8  2E 84 F1 14 0D 4E 7A 11 
  1331)     10683.5  Rx         07B9  8  2F 00 0E 7A 02 00 12 0D 
  1332)     10683.6  Rx         07B9  8  20 5F 7A 01 00 0C 1B BD 
  1333)     10683.6  Rx         07B9  8  21 90 01 7F 9C 01 94 50 
  1334)     10683.7  Rx         07B9  8  22 E1 00 40 C9 F1 02 61 
  1335)     10683.7  Rx         07B9  8  23 71 00 00 00 CA 31 7C 
  1336)     10683.7  Rx         07B9  8  24 67 1A 14 7C E9 58 14 
  1337)     10683.8  Rx         07B9  8  25 7C C8 51 14 18 03 80 
  1338)     10683.8  Rx         07B9  8  26 04 7C E7 E8 14 7C C6 
  1339)     10683.9  Rx         07B9  8  27 E1 14 51 61 00 3C D4 
  1340)     10683.9  Rx         07B9  8  28 01 7D 6B FA 78 18 86 
  1341)     10683.9  Rx         07B9  8  29 AF 1F 7F EB 00 00 00 
  1342)     10700.2  Rx         0729  8  02 76 11 00 00 00 00 00 
  1343)     10770.1  Rx         07B9  8  12 02 36 12 00 D0 7D 7F 
  1344)     10770.9  Rx         0729  8  30 00 00 00 00 00 00 00 
  1345)     10786.8  Rx         07B9  8  21 F8 38 7F FF 00 34 1B 
  1346)     10786.8  Rx         07B9  8  22 FF 84 E0 69 FF D3 F1 
  1347)     10786.9  Rx         07B9  8  23 7A 01 00 88 18 E3 C0 
  1348)     10786.9  Rx         07B9  8  24 01 20 00 2A 03 7A 12 
  1349)     10787.0  Rx         07B9  8  25 00 18 7C 9F F8 70 7C 
  1350)     10787.0  Rx         07B9  8  26 A3 0C 70 7C 8B 0C 70 
  1351)     10787.2  Rx         07B9  8  27 7F E5 1B 78 19 64 D3 
  1352)     10787.3  Rx         07B9  8  28 80 7C CB F8 70 7C C9 
  1353)     10787.3  Rx         07B9  8  29 0C 70 7C E3 0C 70 03 
  1354)     10787.4  Rx         07B9  8  2A 16 7D 67 1B 78 18 89 
  1355)     10787.4  Rx         07B9  8  2B AF 1F 7A 11 FF CA D4 
  1356)     10787.4  Rx         07B9  8  2C 01 18 E3 C0 FF 70 03 
  1357)     10787.5  Rx         07B9  8  2D A8 80 7A 12 00 1C D7 
  1358)     10787.5  Rx         07B9  8  2E 71 D6 61 48 37 18 61 
  1359)     10787.5  Rx         07B9  8  2F 80 08 D2 71 79 FF FE 
  1360)     10787.6  Rx         07B9  8  20 72 48 1C 48 0D 79 FF 
  1361)     10787.6  Rx         07B9  8  21 FF 34 18 E3 C1 01 2A 
  1362)     10787.7  Rx         07B9  8  22 03 7A 02 FF E2 7C 83 
  1363)     10787.7  Rx         07B9  8  23 2B 79 7A 12 FF DA 18 
  1364)     10787.8  Rx         07B9  8  24 A7 90 80 7C 86 01 94 
  1365)     10787.8  Rx         07B9  8  25 01 46 18 A7 C4 00 79 
  1366)     10787.9  Rx         07B9  8  26 FF FF C8 20 23 18 86 
  1367)     10787.9  Rx         07B9  8  27 AF 0F 7A 11 FF B2 2A 
  1368)     10788.0  Rx         07B9  8  28 04 7C E0 08 70 7C EC 
  1369)     10788.0  Rx         07B9  8  29 FC 70 7C AA FC 70 7C 
  1370)     10788.1  Rx         07B9  8  2A 8B 08 70 7C A9 08 70 
  1371)     10788.1  Rx         07B9  8  2B 01 3F 7C C8 08 70 7D 
  1372)     10788.1  Rx         07B9  8  2C 44 5B 78 7D 86 43 78 
  1373)     10788.2  Rx         07B9  8  2D 18 0B D0 01 03 15 7C 
  1374)     10788.2  Rx         07B9  8  2E EB 00 1E 18 63 84 FF 
  1375)     10788.3  Rx         07B9  8  2F 18 86 AF 0F 7A 01 FF 
  1376)     10788.3  Rx         07B9  8  20 CA D4 F1 79 FF FF 72 
  1377)     10788.3  Rx         07B9  8  21 00 00 00 00 00 00 00 
  1378)     10788.4  Rx         07B9  8  22 00 00 00 00 00 18 21 
  1379)     10788.4  Rx         07B9  8  23 06 B0 00 80 54 61 00 
  1380)     10788.5  Rx         07B9  8  24 40 54 01 00 54 54 81 
  1381)     10788.5  Rx         07B9  8  25 00 44 DE 51 DF 61 18 
  1382)     10788.5  Rx         07B9  8  26 61 80 40 18 81 80 20 
  1383)     10788.6  Rx         07B9  8  27 1B C1 09 48 78 00 09 
  1384)     10788.6  Rx         07B9  8  28 9F 18 61 80 38 18 81 
  1385)     10788.7  Rx         07B9  8  29 80 08 78 00 09 93 C8 
  1386)     10788.7  Rx         07B9  8  2A 71 22 07 7A 11 00 1C 
  1387)     10788.7  Rx         07B9  8  2B 18 61 80 20 78 00 07 
  1388)     10788.8  Rx         07B9  8  2C 83 50 01 00 54 00 90 
  1389)     10788.8  Rx         07B9  8  2D 1B C1 08 48 18 21 80 
  1390)     10788.9  Rx         07B9  8  2E 50 00 04 C2 61 18 61 
  1391)     10788.9  Rx         07B9  8  2F 80 08 22 06 7A 01 FF 
  1392)     10788.9  Rx         07B9  8  20 E4 C9 31 18 A7 84 FE 
  1393)     10789.0  Rx         07B9  8  21 C3 41 7C 64 22 78 18 
  1394)     10789.0  Rx         07B9  8  22 A3 CC FD D9 41 7A 02 
  1395)     10789.1  Rx         07B9  8  23 00 16 0D 67 7A 02 FF 
  1396)     10789.1  Rx         07B9  8  24 C4 70 60 E0 05 1C 63 
  1397)     10789.1  Rx         07B9  8  25 B2 60 79 FF FF BC 22 
  1398)     10789.2  Rx         07B9  8  26 36 7A 12 00 B6 22 16 
  1399)     10789.2  Rx         07B9  8  27 7A 12 00 C0 CA 51 CC 
  1400)     10789.3  Rx         07B9  8  28 61 C4 41 C6 E1 06 45 
  1401)     10789.3  Rx         07B9  8  29 CD 71 C7 F1 DA 51 0D 
  1402)     10789.3  Rx         07B9  8  2A 6E 7A 11 00 0E 7A 02 
  1403)     10789.4  Rx         07B9  8  2B 00 22 0D 7F 7A 01 00 
  1404)     10789.4  Rx         07B9  8  2C 1C 7C E0 FC 70 7C E4 
  1405)     10789.5  Rx         07B9  8  2D 08 70 7C C3 08 70 18 
  1406)     10789.5  Rx         07B9  8  2E A5 84 FF 7C 06 1B 78 
  1407)     10789.5  Rx         07B9  8  2F DA 51 01 47 4B D4 62 
  1408)     10789.6  Rx         07B9  8  20 30 48 05 71 80 00 00 
  1409)     10789.6  Rx         07B9  8  21 71 00 00 00 00 B4 0D 
  1410)     10789.7  Rx         07B9  8  22 6E 7A 11 00 1E 7A 02 
  1411)     10789.7  Rx         07B9  8  23 00 0A 0D 7F 7A 11 00 
  1412)     10789.7  Rx         07B9  8  24 14 7C FF 38 10 7C DE 
  1413)     10789.8  Rx         07B9  8  25 31 10 7C 0C 63 78 7C 
  1414)     10789.8  Rx         07B9  8  26 A8 43 78 7C 03 F8 70 
  1415)     10789.9  Rx         07B9  8  27 7C EA FC 70 7C EB 08 
  1416)     10789.9  Rx         07B9  8  28 70 7C A4 0C 70 7C C9 
  1417)     10789.9  Rx         07B9  8  29 08 70 7C 65 00 00 00 
  1418)     10806.4  Rx         0729  8  02 76 12 00 00 00 00 00 
  1419)     10871.4  Rx         07B9  8  12 02 36 13 23 78 68 10 
  1420)     10872.2  Rx         0729  8  30 00 00 00 00 00 00 00 
  1421)     10892.0  Rx         07B9  8  21 7D 46 4B 78 03 37 7A 
  1422)     10892.0  Rx         07B9  8  22 20 FF C0 19 03 C0 FF 
  1423)     10892.1  Rx         07B9  8  23 03 44 03 05 70 03 A8 
  1424)     10892.2  Rx         07B9  8  24 80 7A 12 00 30 55 81 
  1425)     10892.2  Rx         07B9  8  25 00 30 55 01 00 34 18 
  1426)     10892.4  Rx         07B9  8  26 61 80 20 79 FF FF 04 
  1427)     10892.5  Rx         07B9  8  27 48 07 48 06 DD 71 DC 
  1428)     10892.6  Rx         07B9  8  28 61 48 07 DA 71 79 FF 
  1429)     10892.7  Rx         07B9  8  29 FE F0 48 47 18 61 80 
  1430)     10892.7  Rx         07B9  8  2A 20 D8 71 79 FF FE E8 
  1431)     10892.8  Rx         07B9  8  2B 19 03 C1 01 2A 03 7A 
  1432)     10892.8  Rx         07B9  8  2C 02 FF CE 7C C3 5B 79 
  1433)     10892.9  Rx         07B9  8  2D 7A 12 FF C6 18 A5 90 
  1434)     10893.0  Rx         07B9  8  2E 80 7C 84 01 94 02 44 
  1435)     10893.0  Rx         07B9  8  2F 18 A8 C4 00 79 FF FF 
  1436)     10893.4  Rx         07B9  8  20 B4 00 00 18 21 06 B8 
  1437)     10893.5  Rx         07B9  8  21 00 80 54 61 00 40 54 
  1438)     10893.6  Rx         07B9  8  22 01 00 4C 54 81 00 44 
  1439)     10893.6  Rx         07B9  8  23 DE 51 DF 61 18 61 80 
  1440)     10893.7  Rx         07B9  8  24 40 18 81 80 20 78 00 
  1441)     10893.8  Rx         07B9  8  25 08 23 18 61 80 38 18 
  1442)     10894.0  Rx         07B9  8  26 81 80 08 78 00 08 17 
  1443)     10894.0  Rx         07B9  8  27 C8 71 22 07 7A 01 00 
  1444)     10894.1  Rx         07B9  8  28 24 C2 71 22 07 7A 01 
  1445)     10894.2  Rx         07B9  8  29 00 1C 18 61 80 20 18 
  1446)     10894.2  Rx         07B9  8  2A 81 80 08 78 00 08 AB 
  1447)     10894.3  Rx         07B9  8  2B 50 01 00 4C 00 90 18 
  1448)     10894.3  Rx         07B9  8  2C 21 80 48 00 04 50 01 
  1449)     10894.4  Rx         07B9  8  2D 00 4C 00 90 2C 03 18 
  1450)     10894.5  Rx         07B9  8  2E 21 80 48 00 04 00 00 
  1451)     10894.7  Rx         07B9  8  2F 00 00 00 00 00 00 00 
  1452)     10894.7  Rx         07B9  8  20 00 00 00 18 21 06 B8 
  1453)     10894.8  Rx         07B9  8  21 00 80 54 61 00 40 54 
  1454)     10894.8  Rx         07B9  8  22 01 00 4C 54 81 00 44 
  1455)     10894.9  Rx         07B9  8  23 DE 51 DF 61 18 61 80 
  1456)     10895.0  Rx         07B9  8  24 40 18 81 80 20 78 00 
  1457)     10895.0  Rx         07B9  8  25 07 B3 18 61 80 38 18 
  1458)     10895.1  Rx         07B9  8  26 81 80 08 78 00 07 A7 
  1459)     10895.1  Rx         07B9  8  27 C8 71 22 07 7A 01 00 
  1460)     10895.2  Rx         07B9  8  28 24 C2 71 22 07 7A 01 
  1461)     10895.3  Rx         07B9  8  29 00 1C 18 61 80 20 18 
  1462)     10895.3  Rx         07B9  8  2A 81 80 08 78 00 08 3B 
  1463)     10895.4  Rx         07B9  8  2B 50 01 00 4C 00 90 18 
  1464)     10895.5  Rx         07B9  8  2C 21 80 48 00 04 50 01 
  1465)     10895.5  Rx         07B9  8  2D 00 4C 00 90 2C 03 18 
  1466)     10895.6  Rx         07B9  8  2E 21 80 48 00 04 00 00 
  1467)     10895.6  Rx         07B9  8  2F 00 00 00 00 00 00 00 
  1468)     10895.7  Rx         07B9  8  20 00 00 00 18 21 06 B8 
  1469)     10895.8  Rx         07B9  8  21 00 80 54 61 00 40 54 
  1470)     10895.8  Rx         07B9  8  22 01 00 4C 54 81 00 44 
  1471)     10895.9  Rx         07B9  8  23 DE 51 DF 61 18 61 80 
  1472)     10895.9  Rx         07B9  8  24 40 18 81 80 20 78 00 
